* T-Spice 13.00 Simulation	Mon Apr 23 17:27:53 2012	C:\Documents and Settings\Dhiraj\Desktop\VLSI Designs\NMOS_Inverter\NMOS_Inverter.sp
* Command line: tspice -o "C:\Documents and Settings\Dhiraj\Desktop\VLSI Designs\NMOS_Inverter\NMOS_Inverter.out" "C:\Documents and Settings\Dhiraj\Desktop\VLSI Designs\NMOS_Inverter\NMOS_Inverter.sp" 
* T-Spice Win32 13.00.20080321.01:01:33

*SEDIT: Alter blocks = 0

* Accuracy and Convergence options:
* numndset|dchold = 100
* 
* Timestep and Integration options:
*  relq|relchgtol = 0.0005
* 
* Model Evaluation options:
*            dcap = 2                    defnrb = 0 [sq]               defnrd = 0 [sq]
*          defnrs = 0 [sq]                 tnom = 25 [deg C]
* 
* General options:
*            temp = 25 [deg C]          threads = 2
* 
* Output options:
*           acout = 1                    ingold = 0
* 


*  Device and node counts:
*             MOSFETs - 1                 MOSFET geometries - 2       
*                BJTs - 0                             JFETs - 0       
*             MESFETs - 0                            Diodes - 0       
*          Capacitors - 0                         Resistors - 1       
*           Inductors - 0                  Mutual inductors - 0       
*  Transmission lines - 0        Coupled transmission lines - 0       
*     Voltage sources - 2                   Current sources - 0       
*                VCVS - 0                              VCCS - 0       
*                CCVS - 0                              CCCS - 0       
*    V-control switch - 0                  I-control switch - 0       
*       Macro devices - 0        External C model instances - 0       
*         HDL devices - 0       
*         Subcircuits - 0              Subcircuit instances - 0       
*   Independent nodes - 1                    Boundary nodes - 3       
*         Total nodes - 4       


*SEDIT: Alter=0
*SEDIT: Analysis types DCOP 0 ACMODEL 0 AC 0 TRANSIENT 1 TRANSFER 0 NOISE 0 

*WEDIT: .tran   1e-009   1e-007
TRANSIENT ANALYSIS
Time<s>          v(Vin)<V>   v(Vout)<V>
 0.000000e+000  5.0000e+000  1.0308e+000
 6.250000e-011  5.0000e+000  1.0308e+000
 6.875000e-010  5.0000e+000  1.0308e+000
 1.000000e-009  5.0000e+000  1.0308e+000
 1.250000e-009  5.0000e+000  1.0308e+000
 3.250000e-009  5.0000e+000  1.0308e+000
 5.250000e-009  5.0000e+000  1.0308e+000
 7.250000e-009  5.0000e+000  1.0308e+000
 9.250000e-009  5.0000e+000  1.0308e+000
 1.000000e-008  5.0000e+000  1.0308e+000
 1.025000e-008  3.7500e+000  1.4076e+000
 1.054860e-008  2.2570e+000  3.1589e+000
 1.071825e-008  1.4087e+000  4.4057e+000
 1.088791e-008  5.6041e-001  4.9781e+000
 1.100000e-008  0.0000e+000  4.9953e+000
 1.111208e-008  0.0000e+000  5.0000e+000
 1.223290e-008  0.0000e+000  5.0000e+000
 1.423290e-008  0.0000e+000  5.0000e+000
 1.623290e-008  0.0000e+000  5.0000e+000
 1.823290e-008  0.0000e+000  5.0000e+000
 2.000000e-008  0.0000e+000  5.0000e+000
 2.025000e-008  1.2500e+000  4.5811e+000
 2.049999e-008  2.5000e+000  2.7157e+000
 2.062151e-008  3.1076e+000  1.8000e+000
 2.070210e-008  3.5105e+000  1.5267e+000
 2.080610e-008  4.0305e+000  1.2993e+000
 2.094160e-008  4.7080e+000  1.0976e+000
 2.100000e-008  5.0000e+000  1.0322e+000
 2.112151e-008  5.0000e+000  1.0309e+000
 2.233668e-008  5.0000e+000  1.0309e+000
 2.433668e-008  5.0000e+000  1.0309e+000
 2.633668e-008  5.0000e+000  1.0309e+000
 2.833668e-008  5.0000e+000  1.0309e+000
 3.000000e-008  5.0000e+000  1.0308e+000
 3.025000e-008  3.7500e+000  1.4076e+000
 3.054860e-008  2.2570e+000  3.1589e+000
 3.071825e-008  1.4087e+000  4.4057e+000
 3.088791e-008  5.6042e-001  4.9781e+000
 3.100000e-008  0.0000e+000  4.9953e+000
 3.111208e-008  0.0000e+000  5.0000e+000
 3.223292e-008  0.0000e+000  5.0000e+000
 3.423292e-008  0.0000e+000  5.0000e+000
 3.623292e-008  0.0000e+000  5.0000e+000
 3.823292e-008  0.0000e+000  5.0000e+000
 4.000000e-008  0.0000e+000  5.0000e+000
 4.025000e-008  1.2500e+000  4.5811e+000
 4.050000e-008  2.5000e+000  2.7157e+000
 4.062151e-008  3.1076e+000  1.8000e+000
 4.070210e-008  3.5105e+000  1.5267e+000
 4.080610e-008  4.0305e+000  1.2993e+000
 4.094160e-008  4.7080e+000  1.0976e+000
 4.100000e-008  5.0000e+000  1.0322e+000
 4.112151e-008  5.0000e+000  1.0309e+000
 4.233668e-008  5.0000e+000  1.0309e+000
 4.433668e-008  5.0000e+000  1.0309e+000
 4.633668e-008  5.0000e+000  1.0309e+000
 4.833668e-008  5.0000e+000  1.0309e+000
 5.000000e-008  5.0000e+000  1.0308e+000
 5.025000e-008  3.7500e+000  1.4076e+000
 5.054860e-008  2.2570e+000  3.1589e+000
 5.071825e-008  1.4087e+000  4.4057e+000
 5.088791e-008  5.6042e-001  4.9781e+000
 5.100000e-008  0.0000e+000  4.9953e+000
 5.111208e-008  0.0000e+000  5.0000e+000
 5.223292e-008  0.0000e+000  5.0000e+000
 5.423292e-008  0.0000e+000  5.0000e+000
 5.623292e-008  0.0000e+000  5.0000e+000
 5.823292e-008  0.0000e+000  5.0000e+000
 6.000000e-008  1.6544e-014  5.0000e+000
 6.025000e-008  1.2500e+000  4.5811e+000
 6.050000e-008  2.5000e+000  2.7157e+000
 6.062151e-008  3.1076e+000  1.8000e+000
 6.070210e-008  3.5105e+000  1.5267e+000
 6.080610e-008  4.0305e+000  1.2993e+000
 6.094160e-008  4.7080e+000  1.0976e+000
 6.100000e-008  5.0000e+000  1.0322e+000
 6.112151e-008  5.0000e+000  1.0309e+000
 6.233668e-008  5.0000e+000  1.0309e+000
 6.433668e-008  5.0000e+000  1.0309e+000
 6.633668e-008  5.0000e+000  1.0309e+000
 6.833668e-008  5.0000e+000  1.0309e+000
 7.000000e-008  5.0000e+000  1.0308e+000
 7.025000e-008  3.7500e+000  1.4076e+000
 7.054860e-008  2.2570e+000  3.1589e+000
 7.071825e-008  1.4087e+000  4.4057e+000
 7.088791e-008  5.6042e-001  4.9781e+000
 7.100000e-008  0.0000e+000  4.9953e+000
 7.111208e-008  0.0000e+000  5.0000e+000
 7.223292e-008  0.0000e+000  5.0000e+000
 7.423292e-008  0.0000e+000  5.0000e+000
 7.623292e-008  0.0000e+000  5.0000e+000
 7.823292e-008  0.0000e+000  5.0000e+000
 8.000000e-008  3.3087e-014  5.0000e+000
 8.025000e-008  1.2500e+000  4.5811e+000
 8.050000e-008  2.5000e+000  2.7157e+000
 8.062151e-008  3.1076e+000  1.8000e+000
 8.070210e-008  3.5105e+000  1.5267e+000
 8.080610e-008  4.0305e+000  1.2993e+000
 8.094160e-008  4.7080e+000  1.0976e+000
 8.100000e-008  5.0000e+000  1.0322e+000
 8.112151e-008  5.0000e+000  1.0309e+000
 8.233668e-008  5.0000e+000  1.0309e+000
 8.433668e-008  5.0000e+000  1.0309e+000
 8.633668e-008  5.0000e+000  1.0309e+000
 8.833668e-008  5.0000e+000  1.0309e+000
 9.000000e-008  5.0000e+000  1.0308e+000
 9.025000e-008  3.7500e+000  1.4076e+000
 9.054860e-008  2.2570e+000  3.1589e+000
 9.071825e-008  1.4087e+000  4.4057e+000
 9.088791e-008  5.6042e-001  4.9781e+000
 9.100000e-008  1.6875e-014  4.9953e+000
 9.111208e-008  0.0000e+000  5.0000e+000
 9.223292e-008  0.0000e+000  5.0000e+000
 9.423292e-008  0.0000e+000  5.0000e+000
 9.623292e-008  0.0000e+000  5.0000e+000
 9.823292e-008  0.0000e+000  5.0000e+000
 1.000000e-007  4.9631e-014  5.0000e+000
*

* Parsing                      0.01 seconds
* Setup                        0.02 seconds
* DC operating point           0.00 seconds
* Transient Analysis           0.02 seconds
* Overhead                     1.80 seconds
* -----------------------------------------
* Total                        1.84 seconds

* Simulation completed

* End of T-Spice output file
