* T-Spice 13.00 Simulation	Tue Apr 24 10:40:28 2012	C:\Documents and Settings\Dhiraj\Desktop\VLSI Designs\Equation_CMOS\Equation_CMOS.sp
* Command line: tspice -o "C:\Documents and Settings\Dhiraj\Desktop\VLSI Designs\Equation_CMOS\Equation_CMOS.out" "C:\Documents and Settings\Dhiraj\Desktop\VLSI Designs\Equation_CMOS\Equation_CMOS.sp" 
* T-Spice Win32 13.00.20080321.01:01:33
* Warning : "Generic_025_SPICE_Models_Level1.lib" line 0 Parentheses mismatch

* Warning : Node N_5 is attached to only one device (MPMOS_5)

*SEDIT: Alter blocks = 0

* Accuracy and Convergence options:
* numndset|dchold = 100
* 
* Timestep and Integration options:
*  relq|relchgtol = 0.0005
* 
* Model Evaluation options:
*            dcap = 2                    defnrb = 0 [sq]               defnrd = 0 [sq]
*          defnrs = 0 [sq]                 tnom = 25 [deg C]
* 
* General options:
*            temp = 25 [deg C]          threads = 2
* 
* Output options:
*           acout = 1                    ingold = 0
* 


*  Device and node counts:
*             MOSFETs - 10                MOSFET geometries - 4       
*                BJTs - 0                             JFETs - 0       
*             MESFETs - 0                            Diodes - 0       
*          Capacitors - 0                         Resistors - 0       
*           Inductors - 0                  Mutual inductors - 0       
*  Transmission lines - 0        Coupled transmission lines - 0       
*     Voltage sources - 3                   Current sources - 0       
*                VCVS - 0                              VCCS - 0       
*                CCVS - 0                              CCCS - 0       
*    V-control switch - 0                  I-control switch - 0       
*       Macro devices - 0        External C model instances - 0       
*         HDL devices - 0       
*         Subcircuits - 0              Subcircuit instances - 0       
*   Independent nodes - 6                    Boundary nodes - 4       
*         Total nodes - 10      

* *** 2 WARNING MESSAGES GENERATED DURING SETUP


*SEDIT: Alter=0
*SEDIT: Analysis types DCOP 0 ACMODEL 0 AC 0 TRANSIENT 1 TRANSFER 0 NOISE 0 

*WEDIT: .tran   1e-009   1e-007
TRANSIENT ANALYSIS
Time<s>         v(Vin1)<V>   v(Vin2)<V>   v(Vout)<V>
 0.000000e+000  0.0000e+000  0.0000e+000  5.3804e-001
 6.250000e-011  0.0000e+000  0.0000e+000  5.3804e-001
 6.875000e-010  0.0000e+000  0.0000e+000  5.3804e-001
 1.000000e-009  0.0000e+000  0.0000e+000  5.3804e-001
 1.250000e-009  0.0000e+000  0.0000e+000  5.3804e-001
 3.250000e-009  0.0000e+000  0.0000e+000  5.3804e-001
 5.250000e-009  0.0000e+000  0.0000e+000  5.3804e-001
 7.250000e-009  0.0000e+000  0.0000e+000  5.3804e-001
 9.250000e-009  0.0000e+000  0.0000e+000  5.3804e-001
 1.000000e-008  0.0000e+000  0.0000e+000  5.3804e-001
 1.001278e-008  0.0000e+000  6.3942e-002  5.3837e-001
 1.010278e-008  0.0000e+000  5.1394e-001  5.3171e-001
 1.014778e-008  0.0000e+000  7.3894e-001  5.3096e-001
 1.017028e-008  0.0000e+000  8.5144e-001  5.3131e-001
 1.018153e-008  0.0000e+000  9.0769e-001  5.3125e-001
 1.021004e-008  0.0000e+000  1.0502e+000  5.3125e-001
 1.025543e-008  0.0000e+000  1.2772e+000  5.3126e-001
 1.031269e-008  0.0000e+000  1.5635e+000  5.3126e-001
 1.037998e-008  0.0000e+000  1.8999e+000  5.3126e-001
 1.046039e-008  0.0000e+000  2.3020e+000  5.3126e-001
 1.055715e-008  0.0000e+000  2.7858e+000  5.3126e-001
 1.067391e-008  0.0000e+000  3.3696e+000  5.3126e-001
 1.081496e-008  0.0000e+000  4.0748e+000  5.3126e-001
 1.098546e-008  0.0000e+000  4.9273e+000  5.3126e-001
 1.100000e-008  0.0000e+000  5.0000e+000  5.3126e-001
 1.106062e-008  0.0000e+000  5.0000e+000  5.2269e-001
 1.109093e-008  0.0000e+000  5.0000e+000  5.2168e-001
 1.139407e-008  0.0000e+000  5.0000e+000  5.2107e-001
 1.206668e-008  0.0000e+000  5.0000e+000  5.2162e-001
 1.406668e-008  0.0000e+000  5.0000e+000  5.2110e-001
 1.606668e-008  0.0000e+000  5.0000e+000  5.2161e-001
 1.806668e-008  0.0000e+000  5.0000e+000  5.2111e-001
 2.000000e-008  0.0000e+000  5.0000e+000  5.2160e-001
 2.025000e-008  1.2500e+000  3.7500e+000  2.4895e-002
 2.037500e-008  1.8750e+000  3.1250e+000  1.1665e-002
 2.047255e-008  2.3628e+000  2.6372e+000  9.9240e-003
 2.057278e-008  2.8639e+000  2.1361e+000  1.0715e-002
 2.068619e-008  3.4310e+000  1.5690e+000  1.2152e-002
 2.079960e-008  3.9980e+000  1.0020e+000  1.9582e-002
 2.091301e-008  4.5651e+000  4.3493e-001  1.0557e-001
 2.100000e-008  5.0000e+000  0.0000e+000  2.9479e-001
 2.107927e-008  5.0000e+000  0.0000e+000  3.8460e-001
 2.110291e-008  5.0000e+000  0.0000e+000  4.1125e-001
 2.118992e-008  5.0000e+000  0.0000e+000  4.9151e-001
 2.137437e-008  5.0000e+000  0.0000e+000  5.2417e-001
 2.146659e-008  5.0000e+000  0.0000e+000  5.1367e-001
 2.200302e-008  5.0000e+000  0.0000e+000  5.1949e-001
 2.227124e-008  5.0000e+000  0.0000e+000  5.1505e-001
 2.427124e-008  5.0000e+000  0.0000e+000  5.1873e-001
 2.527124e-008  5.0000e+000  0.0000e+000  5.1529e-001
 2.727124e-008  5.0000e+000  0.0000e+000  5.1851e-001
 2.927124e-008  5.0000e+000  0.0000e+000  5.1545e-001
 3.000000e-008  5.0000e+000  0.0000e+000  5.1827e-001
 3.025000e-008  5.0000e+000  1.2500e+000  2.4366e-002
 3.034000e-008  5.0000e+000  1.7000e+000  7.2209e-003
 3.044710e-008  5.0000e+000  2.2355e+000  4.1068e-003
 3.055713e-008  5.0000e+000  2.7857e+000  4.2068e-003
 3.067361e-008  5.0000e+000  3.3681e+000  2.8731e-003
 3.077033e-008  5.0000e+000  3.8517e+000  3.1229e-003
 3.086705e-008  5.0000e+000  4.3353e+000  2.3864e-003
 3.096377e-008  5.0000e+000  4.8189e+000  2.5911e-003
 3.100000e-008  5.0000e+000  5.0000e+000  2.2003e-003
 3.105116e-008  5.0000e+000  5.0000e+000  7.6628e-005
 3.156278e-008  5.0000e+000  5.0000e+000  2.9555e-007
 3.356278e-008  5.0000e+000  5.0000e+000 -3.0584e-007
 3.556278e-008  5.0000e+000  5.0000e+000  3.0522e-007
 3.756278e-008  5.0000e+000  5.0000e+000 -3.0331e-007
 3.956278e-008  5.0000e+000  5.0000e+000  3.0270e-007
 4.000000e-008  5.0000e+000  5.0000e+000 -2.9638e-007
 4.025000e-008  3.7500e+000  3.7500e+000 -1.2642e-002
 4.034000e-008  3.3000e+000  3.3000e+000 -1.4664e-002
 4.043000e-008  2.8500e+000  2.8500e+000 -1.7259e-002
 4.052151e-008  2.3924e+000  2.3924e+000 -2.1064e-002
 4.062463e-008  1.8768e+000  1.8768e+000 -2.7922e-002
 4.073633e-008  1.3183e+000  1.3183e+000 -4.2836e-002
 4.084804e-008  7.5979e-001  7.5979e-001 -8.6453e-002
 4.093787e-008  3.1061e-001  3.1061e-001 -2.3951e-001
 4.098279e-008  8.6021e-002  8.6021e-002 -3.6542e-001
 4.100000e-008  0.0000e+000  0.0000e+000 -3.9056e-001
 4.103525e-008  0.0000e+000  0.0000e+000 -2.0945e-001
 4.105288e-008  0.0000e+000  0.0000e+000 -1.1681e-001
 4.113851e-008  0.0000e+000  0.0000e+000  3.3765e-001
 4.121485e-008  0.0000e+000  0.0000e+000  5.3868e-001
 4.125302e-008  0.0000e+000  0.0000e+000  5.3799e-001
 4.127211e-008  0.0000e+000  0.0000e+000  5.3834e-001
 4.146296e-008  0.0000e+000  0.0000e+000  5.3820e-001
 4.337154e-008  0.0000e+000  0.0000e+000  5.3836e-001
 4.537154e-008  0.0000e+000  0.0000e+000  5.3821e-001
 4.737154e-008  0.0000e+000  0.0000e+000  5.3836e-001
 4.937154e-008  0.0000e+000  0.0000e+000  5.3820e-001
 5.000000e-008  0.0000e+000  8.2718e-015  5.3835e-001
 5.025000e-008  0.0000e+000  1.2500e+000  5.3144e-001
 5.034000e-008  0.0000e+000  1.7000e+000  5.3127e-001
 5.044710e-008  0.0000e+000  2.2355e+000  5.3125e-001
 5.055713e-008  0.0000e+000  2.7857e+000  5.3127e-001
 5.067401e-008  0.0000e+000  3.3701e+000  5.3126e-001
 5.077081e-008  0.0000e+000  3.8541e+000  5.3127e-001
 5.086761e-008  0.0000e+000  4.3381e+000  5.3126e-001
 5.096441e-008  0.0000e+000  4.8221e+000  5.3127e-001
 5.100000e-008  0.0000e+000  5.0000e+000  5.3126e-001
 5.105070e-008  0.0000e+000  5.0000e+000  5.2292e-001
 5.155775e-008  0.0000e+000  5.0000e+000  5.2139e-001
 5.355775e-008  0.0000e+000  5.0000e+000  5.2134e-001
 5.555775e-008  0.0000e+000  5.0000e+000  5.2138e-001
 5.755775e-008  0.0000e+000  5.0000e+000  5.2134e-001
 5.955775e-008  0.0000e+000  5.0000e+000  5.2138e-001
 6.000000e-008  1.6544e-014  5.0000e+000  5.2134e-001
 6.025000e-008  1.2500e+000  3.7500e+000  2.1874e-002
 6.034000e-008  1.7000e+000  3.3000e+000  1.2379e-002
 6.043000e-008  2.1500e+000  2.8500e+000  1.0252e-002
 6.052176e-008  2.6088e+000  2.3912e+000  1.0404e-002
 6.062527e-008  3.1264e+000  1.8736e+000  1.0875e-002
 6.073715e-008  3.6858e+000  1.3142e+000  1.4629e-002
 6.084904e-008  4.2452e+000  7.5478e-001  2.7987e-002
 6.093895e-008  4.6948e+000  3.0524e-001  1.1605e-001
 6.100000e-008  5.0000e+000  0.0000e+000  2.5801e-001
 6.106641e-008  5.0000e+000  0.0000e+000  3.3402e-001
 6.108978e-008  5.0000e+000  0.0000e+000  3.6077e-001
 6.117567e-008  5.0000e+000  0.0000e+000  4.5461e-001
 6.134416e-008  5.0000e+000  0.0000e+000  5.2195e-001
 6.142841e-008  5.0000e+000  0.0000e+000  5.1521e-001
 6.147053e-008  5.0000e+000  0.0000e+000  5.1696e-001
 6.189176e-008  5.0000e+000  0.0000e+000  5.1713e-001
 6.389176e-008  5.0000e+000  0.0000e+000  5.1698e-001
 6.589176e-008  5.0000e+000  0.0000e+000  5.1712e-001
 6.789176e-008  5.0000e+000  0.0000e+000  5.1699e-001
 6.989176e-008  5.0000e+000  0.0000e+000  5.1711e-001
 7.000000e-008  5.0000e+000  1.6544e-014  5.1703e-001
 7.025000e-008  5.0000e+000  1.2500e+000  2.4415e-002
 7.034000e-008  5.0000e+000  1.7000e+000  7.2278e-003
 7.044710e-008  5.0000e+000  2.2355e+000  4.1028e-003
 7.055713e-008  5.0000e+000  2.7857e+000  4.2095e-003
 7.067425e-008  5.0000e+000  3.3713e+000  2.8686e-003
 7.077110e-008  5.0000e+000  3.8555e+000  3.1221e-003
 7.086795e-008  5.0000e+000  4.3398e+000  2.3831e-003
 7.096480e-008  5.0000e+000  4.8240e+000  2.5903e-003
 7.100000e-008  5.0000e+000  5.0000e+000  2.2006e-003
 7.105043e-008  5.0000e+000  5.0000e+000  7.7685e-005
 7.155473e-008  5.0000e+000  5.0000e+000  3.0387e-007
 7.355473e-008  5.0000e+000  5.0000e+000 -3.1483e-007
 7.555473e-008  5.0000e+000  5.0000e+000  3.1417e-007
 7.755473e-008  5.0000e+000  5.0000e+000 -3.1223e-007
 7.955473e-008  5.0000e+000  5.0000e+000  3.1158e-007
 8.000000e-008  5.0000e+000  5.0000e+000 -3.0520e-007
 8.025000e-008  3.7500e+000  3.7500e+000 -1.2642e-002
 8.034000e-008  3.3000e+000  3.3000e+000 -1.4664e-002
 8.043000e-008  2.8500e+000  2.8500e+000 -1.7259e-002
 8.052193e-008  2.3903e+000  2.3903e+000 -2.1086e-002
 8.062573e-008  1.8713e+000  1.8713e+000 -2.8019e-002
 8.073774e-008  1.3113e+000  1.3113e+000 -4.3122e-002
 8.084976e-008  7.5120e-001  7.5120e-001 -8.7751e-002
 8.093972e-008  3.0139e-001  3.0139e-001 -2.4486e-001
 8.098470e-008  7.6488e-002  7.6488e-002 -3.6884e-001
 8.100000e-008  0.0000e+000  0.0000e+000 -3.8985e-001
 8.103324e-008  0.0000e+000  0.0000e+000 -2.1918e-001
 8.104986e-008  0.0000e+000  0.0000e+000 -1.3189e-001
 8.113555e-008  0.0000e+000  0.0000e+000  3.2296e-001
 8.121192e-008  0.0000e+000  0.0000e+000  5.3703e-001
 8.125010e-008  0.0000e+000  0.0000e+000  5.3893e-001
 8.126919e-008  0.0000e+000  0.0000e+000  5.3803e-001
 8.146011e-008  0.0000e+000  0.0000e+000  5.3849e-001
 8.336925e-008  0.0000e+000  0.0000e+000  5.3808e-001
 8.536925e-008  0.0000e+000  0.0000e+000  5.3848e-001
 8.736925e-008  0.0000e+000  0.0000e+000  5.3808e-001
 8.936925e-008  0.0000e+000  0.0000e+000  5.3847e-001
 9.000000e-008  0.0000e+000  8.2718e-015  5.3810e-001
 9.025000e-008  0.0000e+000  1.2500e+000  5.3144e-001
 9.034000e-008  0.0000e+000  1.7000e+000  5.3127e-001
 9.044710e-008  0.0000e+000  2.2355e+000  5.3125e-001
 9.055713e-008  0.0000e+000  2.7857e+000  5.3127e-001
 9.067441e-008  0.0000e+000  3.3721e+000  5.3126e-001
 9.077130e-008  0.0000e+000  3.8565e+000  5.3127e-001
 9.086819e-008  0.0000e+000  4.3410e+000  5.3126e-001
 9.096507e-008  0.0000e+000  4.8254e+000  5.3127e-001
 9.100000e-008  0.0000e+000  5.0000e+000  5.3126e-001
 9.105023e-008  0.0000e+000  5.0000e+000  5.2293e-001
 9.155255e-008  0.0000e+000  5.0000e+000  5.2139e-001
 9.355255e-008  0.0000e+000  5.0000e+000  5.2134e-001
 9.555255e-008  0.0000e+000  5.0000e+000  5.2138e-001
 9.755255e-008  0.0000e+000  5.0000e+000  5.2134e-001
 9.955255e-008  0.0000e+000  5.0000e+000  5.2138e-001
 1.000000e-007  4.9631e-014  5.0000e+000  5.2134e-001
*

* Parsing                      0.00 seconds
* Setup                        0.02 seconds
* DC operating point           0.01 seconds
* Transient Analysis           0.05 seconds
* Overhead                     1.94 seconds
* -----------------------------------------
* Total                        2.01 seconds

* Simulation completed	with  2 Warnings

* End of T-Spice output file
