* T-Spice 13.00 Simulation	Mon Apr 23 17:55:38 2012	C:\Documents and Settings\Dhiraj\Desktop\VLSI Designs\NAND_Gate\NAND_Gate.sp
* Command line: tspice -o "C:\Documents and Settings\Dhiraj\Desktop\VLSI Designs\NAND_Gate\NAND_Gate.out" "C:\Documents and Settings\Dhiraj\Desktop\VLSI Designs\NAND_Gate\NAND_Gate.sp" 
* T-Spice Win32 13.00.20080321.01:01:33

*SEDIT: Alter blocks = 0

* Accuracy and Convergence options:
* numndset|dchold = 100
* 
* Timestep and Integration options:
*  relq|relchgtol = 0.0005
* 
* Model Evaluation options:
*            dcap = 2                    defnrb = 0 [sq]               defnrd = 0 [sq]
*          defnrs = 0 [sq]                 tnom = 25 [deg C]
* 
* General options:
*            temp = 25 [deg C]          threads = 2
* 
* Output options:
*           acout = 1                    ingold = 0
* 


*  Device and node counts:
*             MOSFETs - 2                 MOSFET geometries - 2       
*                BJTs - 0                             JFETs - 0       
*             MESFETs - 0                            Diodes - 0       
*          Capacitors - 0                         Resistors - 1       
*           Inductors - 0                  Mutual inductors - 0       
*  Transmission lines - 0        Coupled transmission lines - 0       
*     Voltage sources - 3                   Current sources - 0       
*                VCVS - 0                              VCCS - 0       
*                CCVS - 0                              CCCS - 0       
*    V-control switch - 0                  I-control switch - 0       
*       Macro devices - 0        External C model instances - 0       
*         HDL devices - 0       
*         Subcircuits - 0              Subcircuit instances - 0       
*   Independent nodes - 2                    Boundary nodes - 4       
*         Total nodes - 6       


*SEDIT: Alter=0
*SEDIT: Analysis types DCOP 0 ACMODEL 0 AC 0 TRANSIENT 1 TRANSFER 0 NOISE 0 

*WEDIT: .tran   1e-009   1e-007
TRANSIENT ANALYSIS
Time<s>         v(Vin1)<V>   v(Vin2)<V>   v(Vout)<V>
 0.000000e+000  0.0000e+000  0.0000e+000  5.0000e+000
 6.250000e-011  0.0000e+000  0.0000e+000  5.0000e+000
 6.875000e-010  0.0000e+000  0.0000e+000  5.0000e+000
 1.000000e-009  0.0000e+000  0.0000e+000  5.0000e+000
 1.250000e-009  0.0000e+000  0.0000e+000  5.0000e+000
 3.250000e-009  0.0000e+000  0.0000e+000  5.0000e+000
 5.250000e-009  0.0000e+000  0.0000e+000  5.0000e+000
 7.250000e-009  0.0000e+000  0.0000e+000  5.0000e+000
 9.250000e-009  0.0000e+000  0.0000e+000  5.0000e+000
 1.000000e-008  0.0000e+000  0.0000e+000  5.0000e+000
 1.001415e-008  0.0000e+000  7.0764e-002  5.0000e+000
 1.010415e-008  0.0000e+000  5.2076e-001  5.0000e+000
 1.018934e-008  0.0000e+000  9.4671e-001  5.0000e+000
 1.023193e-008  0.0000e+000  1.1597e+000  5.0000e+000
 1.028741e-008  0.0000e+000  1.4371e+000  5.0000e+000
 1.035090e-008  0.0000e+000  1.7545e+000  5.0000e+000
 1.042597e-008  0.0000e+000  2.1299e+000  5.0000e+000
 1.051589e-008  0.0000e+000  2.5795e+000  5.0000e+000
 1.062419e-008  0.0000e+000  3.1210e+000  5.0000e+000
 1.075495e-008  0.0000e+000  3.7748e+000  5.0000e+000
 1.091294e-008  0.0000e+000  4.5647e+000  5.0000e+000
 1.100000e-008  0.0000e+000  5.0000e+000  5.0000e+000
 1.114837e-008  0.0000e+000  5.0000e+000  5.0000e+000
 1.263210e-008  0.0000e+000  5.0000e+000  5.0000e+000
 1.463210e-008  0.0000e+000  5.0000e+000  5.0000e+000
 1.663210e-008  0.0000e+000  5.0000e+000  5.0000e+000
 1.863210e-008  0.0000e+000  5.0000e+000  5.0000e+000
 2.000000e-008  0.0000e+000  5.0000e+000  5.0000e+000
 2.025000e-008  1.2500e+000  3.7500e+000  4.6811e+000
 2.034000e-008  1.7000e+000  3.3000e+000  4.3814e+000
 2.044710e-008  2.2355e+000  2.7645e+000  4.0346e+000
 2.055713e-008  2.7857e+000  2.2143e+000  3.8406e+000
 2.066216e-008  3.3108e+000  1.6892e+000  4.1503e+000
 2.074101e-008  3.7051e+000  1.2949e+000  4.5633e+000
 2.081151e-008  4.0576e+000  9.4245e-001  4.8207e+000
 2.088287e-008  4.4144e+000  5.8560e-001  4.9663e+000
 2.095468e-008  4.7734e+000  2.2657e-001  4.9967e+000
 2.099059e-008  4.9530e+000  4.7046e-002  4.9969e+000
 2.100000e-008  5.0000e+000  0.0000e+000  4.9968e+000
 2.102607e-008  5.0000e+000  0.0000e+000  4.9977e+000
 2.128680e-008  5.0000e+000  0.0000e+000  4.9998e+000
 2.328680e-008  5.0000e+000  0.0000e+000  5.0000e+000
 2.528680e-008  5.0000e+000  0.0000e+000  5.0000e+000
 2.728680e-008  5.0000e+000  0.0000e+000  5.0000e+000
 2.928680e-008  5.0000e+000  0.0000e+000  5.0000e+000
 3.000000e-008  5.0000e+000  0.0000e+000  5.0000e+000
 3.025000e-008  5.0000e+000  1.2500e+000  4.6024e+000
 3.037500e-008  5.0000e+000  1.8750e+000  3.8632e+000
 3.049312e-008  5.0000e+000  2.4656e+000  2.9059e+000
 3.057184e-008  5.0000e+000  2.8592e+000  2.5143e+000
 3.065847e-008  5.0000e+000  3.2924e+000  2.2836e+000
 3.076843e-008  5.0000e+000  3.8422e+000  2.0826e+000
 3.091461e-008  5.0000e+000  4.5731e+000  1.9138e+000
 3.100000e-008  5.0000e+000  5.0000e+000  1.8351e+000
 3.114694e-008  5.0000e+000  5.0000e+000  1.8358e+000
 3.261634e-008  5.0000e+000  5.0000e+000  1.8358e+000
 3.461634e-008  5.0000e+000  5.0000e+000  1.8358e+000
 3.661634e-008  5.0000e+000  5.0000e+000  1.8358e+000
 3.861634e-008  5.0000e+000  5.0000e+000  1.8358e+000
 4.000000e-008  5.0000e+000  5.0000e+000  1.8358e+000
 4.025000e-008  3.7500e+000  3.7500e+000  2.4909e+000
 4.054943e-008  2.2528e+000  2.2528e+000  4.1319e+000
 4.078568e-008  1.0716e+000  1.0716e+000  4.8738e+000
 4.094974e-008  2.5126e-001  2.5126e-001  4.9948e+000
 4.100000e-008  0.0000e+000  0.0000e+000  4.9972e+000
 4.106025e-008  0.0000e+000  0.0000e+000  5.0000e+000
 4.166280e-008  0.0000e+000  0.0000e+000  5.0000e+000
 4.366280e-008  0.0000e+000  0.0000e+000  5.0000e+000
 4.566280e-008  0.0000e+000  0.0000e+000  5.0000e+000
 4.766280e-008  0.0000e+000  0.0000e+000  5.0000e+000
 4.966280e-008  0.0000e+000  0.0000e+000  5.0000e+000
 5.000000e-008  0.0000e+000  8.2718e-015  5.0000e+000
 5.025000e-008  0.0000e+000  1.2500e+000  5.0000e+000
 5.034000e-008  0.0000e+000  1.7000e+000  5.0000e+000
 5.044710e-008  0.0000e+000  2.2355e+000  5.0000e+000
 5.055713e-008  0.0000e+000  2.7857e+000  5.0000e+000
 5.068165e-008  0.0000e+000  3.4083e+000  5.0000e+000
 5.082815e-008  0.0000e+000  4.1408e+000  5.0000e+000
 5.100000e-008  0.0000e+000  5.0000e+000  5.0000e+000
 5.120846e-008  0.0000e+000  5.0000e+000  5.0000e+000
 5.320846e-008  0.0000e+000  5.0000e+000  5.0000e+000
 5.520846e-008  0.0000e+000  5.0000e+000  5.0000e+000
 5.720846e-008  0.0000e+000  5.0000e+000  5.0000e+000
 5.920846e-008  0.0000e+000  5.0000e+000  5.0000e+000
 6.000000e-008  1.6544e-014  5.0000e+000  5.0000e+000
 6.025000e-008  1.2500e+000  3.7500e+000  4.6811e+000
 6.034000e-008  1.7000e+000  3.3000e+000  4.3814e+000
 6.044710e-008  2.2355e+000  2.7645e+000  4.0346e+000
 6.055713e-008  2.7857e+000  2.2143e+000  3.8406e+000
 6.066216e-008  3.3108e+000  1.6892e+000  4.1503e+000
 6.074101e-008  3.7051e+000  1.2949e+000  4.5633e+000
 6.081151e-008  4.0576e+000  9.4245e-001  4.8207e+000
 6.088287e-008  4.4144e+000  5.8560e-001  4.9663e+000
 6.095468e-008  4.7734e+000  2.2657e-001  4.9967e+000
 6.099059e-008  4.9530e+000  4.7046e-002  4.9969e+000
 6.100000e-008  5.0000e+000  0.0000e+000  4.9968e+000
 6.102607e-008  5.0000e+000  0.0000e+000  4.9977e+000
 6.128680e-008  5.0000e+000  0.0000e+000  4.9998e+000
 6.328680e-008  5.0000e+000  0.0000e+000  5.0000e+000
 6.528680e-008  5.0000e+000  0.0000e+000  5.0000e+000
 6.728680e-008  5.0000e+000  0.0000e+000  5.0000e+000
 6.928680e-008  5.0000e+000  0.0000e+000  5.0000e+000
 7.000000e-008  5.0000e+000  1.6544e-014  5.0000e+000
 7.025000e-008  5.0000e+000  1.2500e+000  4.6024e+000
 7.037500e-008  5.0000e+000  1.8750e+000  3.8632e+000
 7.049312e-008  5.0000e+000  2.4656e+000  2.9059e+000
 7.057184e-008  5.0000e+000  2.8592e+000  2.5143e+000
 7.065847e-008  5.0000e+000  3.2924e+000  2.2836e+000
 7.076843e-008  5.0000e+000  3.8422e+000  2.0826e+000
 7.091461e-008  5.0000e+000  4.5731e+000  1.9138e+000
 7.100000e-008  5.0000e+000  5.0000e+000  1.8351e+000
 7.114694e-008  5.0000e+000  5.0000e+000  1.8358e+000
 7.261634e-008  5.0000e+000  5.0000e+000  1.8358e+000
 7.461634e-008  5.0000e+000  5.0000e+000  1.8358e+000
 7.661634e-008  5.0000e+000  5.0000e+000  1.8358e+000
 7.861634e-008  5.0000e+000  5.0000e+000  1.8358e+000
 8.000000e-008  5.0000e+000  5.0000e+000  1.8358e+000
 8.025000e-008  3.7500e+000  3.7500e+000  2.4909e+000
 8.054943e-008  2.2528e+000  2.2528e+000  4.1319e+000
 8.078568e-008  1.0716e+000  1.0716e+000  4.8738e+000
 8.094974e-008  2.5126e-001  2.5126e-001  4.9948e+000
 8.100000e-008  0.0000e+000  0.0000e+000  4.9972e+000
 8.106025e-008  0.0000e+000  0.0000e+000  5.0000e+000
 8.166280e-008  0.0000e+000  0.0000e+000  5.0000e+000
 8.366280e-008  0.0000e+000  0.0000e+000  5.0000e+000
 8.566280e-008  0.0000e+000  0.0000e+000  5.0000e+000
 8.766280e-008  0.0000e+000  0.0000e+000  5.0000e+000
 8.966280e-008  0.0000e+000  0.0000e+000  5.0000e+000
 9.000000e-008  0.0000e+000  8.2718e-015  5.0000e+000
 9.025000e-008  0.0000e+000  1.2500e+000  5.0000e+000
 9.034000e-008  0.0000e+000  1.7000e+000  5.0000e+000
 9.044710e-008  0.0000e+000  2.2355e+000  5.0000e+000
 9.055713e-008  0.0000e+000  2.7857e+000  5.0000e+000
 9.068165e-008  0.0000e+000  3.4083e+000  5.0000e+000
 9.082815e-008  0.0000e+000  4.1408e+000  5.0000e+000
 9.100000e-008  0.0000e+000  5.0000e+000  5.0000e+000
 9.120846e-008  0.0000e+000  5.0000e+000  5.0000e+000
 9.320846e-008  0.0000e+000  5.0000e+000  5.0000e+000
 9.520846e-008  0.0000e+000  5.0000e+000  5.0000e+000
 9.720846e-008  0.0000e+000  5.0000e+000  5.0000e+000
 9.920846e-008  0.0000e+000  5.0000e+000  5.0000e+000
 1.000000e-007  4.9631e-014  5.0000e+000  5.0000e+000
*

* Parsing                      0.00 seconds
* Setup                        0.01 seconds
* DC operating point           0.00 seconds
* Transient Analysis           0.02 seconds
* Overhead                     1.72 seconds
* -----------------------------------------
* Total                        1.75 seconds

* Simulation completed

* End of T-Spice output file
