* T-Spice 13.00 Simulation	Tue Apr 24 13:24:45 2012	C:\Documents and Settings\Dhiraj\Desktop\VLSI Designs\NOT_Gate\NOT_Gate.sp
* Command line: tspice -o "C:\Documents and Settings\Dhiraj\Desktop\VLSI Designs\NOT_Gate\NOT_Gate.out" "C:\Documents and Settings\Dhiraj\Desktop\VLSI Designs\NOT_Gate\NOT_Gate.sp" 
* T-Spice Win32 13.00.20080321.01:01:33

*SEDIT: Alter blocks = 0

* Accuracy and Convergence options:
* numndset|dchold = 100
* 
* Timestep and Integration options:
*  relq|relchgtol = 0.0005
* 
* Model Evaluation options:
*            dcap = 2                    defnrb = 0 [sq]               defnrd = 0 [sq]
*          defnrs = 0 [sq]                 tnom = 25 [deg C]
* 
* General options:
*            temp = 25 [deg C]          threads = 2
* 
* Output options:
*           acout = 1                    ingold = 0
* 


*  Device and node counts:
*             MOSFETs - 1                 MOSFET geometries - 2       
*                BJTs - 0                             JFETs - 0       
*             MESFETs - 0                            Diodes - 0       
*          Capacitors - 0                         Resistors - 1       
*           Inductors - 0                  Mutual inductors - 0       
*  Transmission lines - 0        Coupled transmission lines - 0       
*     Voltage sources - 2                   Current sources - 0       
*                VCVS - 0                              VCCS - 0       
*                CCVS - 0                              CCCS - 0       
*    V-control switch - 0                  I-control switch - 0       
*       Macro devices - 0        External C model instances - 0       
*         HDL devices - 0       
*         Subcircuits - 0              Subcircuit instances - 0       
*   Independent nodes - 1                    Boundary nodes - 3       
*         Total nodes - 4       


*SEDIT: Alter=0
*SEDIT: Analysis types DCOP 0 ACMODEL 0 AC 0 TRANSIENT 1 TRANSFER 0 NOISE 0 

*WEDIT: .tran   1e-009   1e-007
TRANSIENT ANALYSIS
Time<s>          v(Vin)<V>   v(Vout)<V>
 0.000000e+000  0.0000e+000  5.0000e+000
 6.250000e-011  0.0000e+000  5.0000e+000
 6.875000e-010  0.0000e+000  5.0000e+000
 1.000000e-009  0.0000e+000  5.0000e+000
 1.250000e-009  0.0000e+000  5.0000e+000
 3.250000e-009  0.0000e+000  5.0000e+000
 5.250000e-009  0.0000e+000  5.0000e+000
 7.250000e-009  0.0000e+000  5.0000e+000
 9.250000e-009  0.0000e+000  5.0000e+000
 1.000000e-008  0.0000e+000  5.0000e+000
 1.025000e-008  1.2500e+000  4.5811e+000
 1.050000e-008  2.5000e+000  2.7157e+000
 1.062151e-008  3.1076e+000  1.8000e+000
 1.070210e-008  3.5105e+000  1.5267e+000
 1.080610e-008  4.0305e+000  1.2993e+000
 1.094160e-008  4.7080e+000  1.0976e+000
 1.100000e-008  5.0000e+000  1.0322e+000
 1.112151e-008  5.0000e+000  1.0309e+000
 1.233668e-008  5.0000e+000  1.0309e+000
 1.433668e-008  5.0000e+000  1.0309e+000
 1.633668e-008  5.0000e+000  1.0309e+000
 1.833668e-008  5.0000e+000  1.0309e+000
 2.000000e-008  5.0000e+000  1.0308e+000
 2.025000e-008  3.7500e+000  1.4076e+000
 2.054860e-008  2.2570e+000  3.1589e+000
 2.071825e-008  1.4087e+000  4.4057e+000
 2.088791e-008  5.6042e-001  4.9781e+000
 2.100000e-008  0.0000e+000  4.9953e+000
 2.111208e-008  0.0000e+000  5.0000e+000
 2.223292e-008  0.0000e+000  5.0000e+000
 2.423292e-008  0.0000e+000  5.0000e+000
 2.623292e-008  0.0000e+000  5.0000e+000
 2.823292e-008  0.0000e+000  5.0000e+000
 3.000000e-008  0.0000e+000  5.0000e+000
 3.025000e-008  1.2500e+000  4.5811e+000
 3.050000e-008  2.5000e+000  2.7157e+000
 3.062151e-008  3.1076e+000  1.8000e+000
 3.070210e-008  3.5105e+000  1.5267e+000
 3.080610e-008  4.0305e+000  1.2993e+000
 3.094160e-008  4.7080e+000  1.0976e+000
 3.100000e-008  5.0000e+000  1.0322e+000
 3.112151e-008  5.0000e+000  1.0309e+000
 3.233668e-008  5.0000e+000  1.0309e+000
 3.433668e-008  5.0000e+000  1.0309e+000
 3.633668e-008  5.0000e+000  1.0309e+000
 3.833668e-008  5.0000e+000  1.0309e+000
 4.000000e-008  5.0000e+000  1.0308e+000
 4.025000e-008  3.7500e+000  1.4076e+000
 4.054860e-008  2.2570e+000  3.1589e+000
 4.071825e-008  1.4087e+000  4.4057e+000
 4.088791e-008  5.6042e-001  4.9781e+000
 4.100000e-008  0.0000e+000  4.9953e+000
 4.111208e-008  0.0000e+000  5.0000e+000
 4.223292e-008  0.0000e+000  5.0000e+000
 4.423292e-008  0.0000e+000  5.0000e+000
 4.623292e-008  0.0000e+000  5.0000e+000
 4.823292e-008  0.0000e+000  5.0000e+000
 5.000000e-008  8.2718e-015  5.0000e+000
 5.025000e-008  1.2500e+000  4.5811e+000
 5.050000e-008  2.5000e+000  2.7157e+000
 5.062151e-008  3.1076e+000  1.8000e+000
 5.070210e-008  3.5105e+000  1.5267e+000
 5.080610e-008  4.0305e+000  1.2993e+000
 5.094160e-008  4.7080e+000  1.0976e+000
 5.100000e-008  5.0000e+000  1.0322e+000
 5.112151e-008  5.0000e+000  1.0309e+000
 5.233668e-008  5.0000e+000  1.0309e+000
 5.433668e-008  5.0000e+000  1.0309e+000
 5.633668e-008  5.0000e+000  1.0309e+000
 5.833668e-008  5.0000e+000  1.0309e+000
 6.000000e-008  5.0000e+000  1.0308e+000
 6.025000e-008  3.7500e+000  1.4076e+000
 6.054860e-008  2.2570e+000  3.1589e+000
 6.071825e-008  1.4087e+000  4.4057e+000
 6.088791e-008  5.6042e-001  4.9781e+000
 6.100000e-008  0.0000e+000  4.9953e+000
 6.111208e-008  0.0000e+000  5.0000e+000
 6.223292e-008  0.0000e+000  5.0000e+000
 6.423292e-008  0.0000e+000  5.0000e+000
 6.623292e-008  0.0000e+000  5.0000e+000
 6.823292e-008  0.0000e+000  5.0000e+000
 7.000000e-008  1.6544e-014  5.0000e+000
 7.025000e-008  1.2500e+000  4.5811e+000
 7.050000e-008  2.5000e+000  2.7157e+000
 7.062151e-008  3.1076e+000  1.8000e+000
 7.070210e-008  3.5105e+000  1.5267e+000
 7.080610e-008  4.0305e+000  1.2993e+000
 7.094160e-008  4.7080e+000  1.0976e+000
 7.100000e-008  5.0000e+000  1.0322e+000
 7.112151e-008  5.0000e+000  1.0309e+000
 7.233668e-008  5.0000e+000  1.0309e+000
 7.433668e-008  5.0000e+000  1.0309e+000
 7.633668e-008  5.0000e+000  1.0309e+000
 7.833668e-008  5.0000e+000  1.0309e+000
 8.000000e-008  5.0000e+000  1.0308e+000
 8.025000e-008  3.7500e+000  1.4076e+000
 8.054860e-008  2.2570e+000  3.1589e+000
 8.071825e-008  1.4087e+000  4.4057e+000
 8.088791e-008  5.6042e-001  4.9781e+000
 8.100000e-008  0.0000e+000  4.9953e+000
 8.111208e-008  0.0000e+000  5.0000e+000
 8.223292e-008  0.0000e+000  5.0000e+000
 8.423292e-008  0.0000e+000  5.0000e+000
 8.623292e-008  0.0000e+000  5.0000e+000
 8.823292e-008  0.0000e+000  5.0000e+000
 9.000000e-008  8.2718e-015  5.0000e+000
 9.025000e-008  1.2500e+000  4.5811e+000
 9.050000e-008  2.5000e+000  2.7157e+000
 9.062151e-008  3.1076e+000  1.8000e+000
 9.070210e-008  3.5105e+000  1.5267e+000
 9.080610e-008  4.0305e+000  1.2993e+000
 9.094160e-008  4.7080e+000  1.0976e+000
 9.100000e-008  5.0000e+000  1.0322e+000
 9.112151e-008  5.0000e+000  1.0309e+000
 9.233668e-008  5.0000e+000  1.0309e+000
 9.433668e-008  5.0000e+000  1.0309e+000
 9.633668e-008  5.0000e+000  1.0309e+000
 9.833668e-008  5.0000e+000  1.0309e+000
 1.000000e-007  5.0000e+000  1.0308e+000
*

* Parsing                      0.00 seconds
* Setup                        0.02 seconds
* DC operating point           0.00 seconds
* Transient Analysis           0.01 seconds
* Overhead                     1.98 seconds
* -----------------------------------------
* Total                        2.01 seconds

* Simulation completed

* End of T-Spice output file
