* T-Spice 13.00 Simulation	Tue Apr 24 17:17:21 2012	C:\Documents and Settings\Dhiraj\Desktop\VLSI Designs\3_Input_NOR_Gate\3_Input_NOR_Gate.sp
* Command line: tspice -o "C:\Documents and Settings\Dhiraj\Desktop\VLSI Designs\3_Input_NOR_Gate\3_Input_NOR_Gate.out" "C:\Documents and Settings\Dhiraj\Desktop\VLSI Designs\3_Input_NOR_Gate\3_Input_NOR_Gate.sp" 
* T-Spice Win32 13.00.20080321.01:01:33

*SEDIT: Alter blocks = 0

* Accuracy and Convergence options:
* numndset|dchold = 100
* 
* Timestep and Integration options:
*  relq|relchgtol = 0.0005
* 
* Model Evaluation options:
*            dcap = 2                    defnrb = 0 [sq]               defnrd = 0 [sq]
*          defnrs = 0 [sq]                 tnom = 25 [deg C]
* 
* General options:
*            temp = 25 [deg C]          threads = 2
* 
* Output options:
*           acout = 1                    ingold = 0
* 


*  Device and node counts:
*             MOSFETs - 3                 MOSFET geometries - 2       
*                BJTs - 0                             JFETs - 0       
*             MESFETs - 0                            Diodes - 0       
*          Capacitors - 0                         Resistors - 1       
*           Inductors - 0                  Mutual inductors - 0       
*  Transmission lines - 0        Coupled transmission lines - 0       
*     Voltage sources - 4                   Current sources - 0       
*                VCVS - 0                              VCCS - 0       
*                CCVS - 0                              CCCS - 0       
*    V-control switch - 0                  I-control switch - 0       
*       Macro devices - 0        External C model instances - 0       
*         HDL devices - 0       
*         Subcircuits - 0              Subcircuit instances - 0       
*   Independent nodes - 1                    Boundary nodes - 5       
*         Total nodes - 6       


*SEDIT: Alter=0
*SEDIT: Analysis types DCOP 0 ACMODEL 0 AC 0 TRANSIENT 1 TRANSFER 0 NOISE 0 

*WEDIT: .tran   1e-009   1e-007
TRANSIENT ANALYSIS
Time<s>         v(Vin1)<V>   v(Vin2)<V>   v(Vin3)<V>   v(Vout)<V>
 0.000000e+000  0.0000e+000  0.0000e+000  0.0000e+000  5.0000e+000
 6.250000e-011  0.0000e+000  0.0000e+000  0.0000e+000  5.0000e+000
 6.875000e-010  0.0000e+000  0.0000e+000  0.0000e+000  5.0000e+000
 1.000000e-009  0.0000e+000  0.0000e+000  0.0000e+000  5.0000e+000
 1.250000e-009  0.0000e+000  0.0000e+000  0.0000e+000  5.0000e+000
 3.250000e-009  0.0000e+000  0.0000e+000  0.0000e+000  5.0000e+000
 5.250000e-009  0.0000e+000  0.0000e+000  0.0000e+000  5.0000e+000
 7.250000e-009  0.0000e+000  0.0000e+000  0.0000e+000  5.0000e+000
 9.250000e-009  0.0000e+000  0.0000e+000  0.0000e+000  5.0000e+000
 1.000000e-008  0.0000e+000  0.0000e+000  0.0000e+000  5.0000e+000
 1.025000e-008  0.0000e+000  0.0000e+000  1.2500e+000  4.4486e-001
 1.037500e-008  0.0000e+000  0.0000e+000  1.8750e+000  1.9558e-001
 1.049312e-008  0.0000e+000  0.0000e+000  2.4656e+000  1.3462e-001
 1.061449e-008  0.0000e+000  0.0000e+000  3.0725e+000  1.0577e-001
 1.075182e-008  0.0000e+000  0.0000e+000  3.7591e+000  8.2541e-002
 1.091340e-008  0.0000e+000  0.0000e+000  4.5670e+000  6.7867e-002
 1.100000e-008  0.0000e+000  0.0000e+000  5.0000e+000  6.0415e-002
 1.114798e-008  0.0000e+000  0.0000e+000  5.0000e+000  6.0156e-002
 1.262778e-008  0.0000e+000  0.0000e+000  5.0000e+000  6.0156e-002
 1.462778e-008  0.0000e+000  0.0000e+000  5.0000e+000  6.0156e-002
 1.662778e-008  0.0000e+000  0.0000e+000  5.0000e+000  6.0156e-002
 1.862778e-008  0.0000e+000  0.0000e+000  5.0000e+000  6.0156e-002
 2.000000e-008  0.0000e+000  0.0000e+000  5.0000e+000  6.0154e-002
 2.025000e-008  0.0000e+000  1.2500e+000  3.7500e+000  6.5869e-002
 2.049999e-008  0.0000e+000  2.5000e+000  2.5000e+000  6.5869e-002
 2.074999e-008  0.0000e+000  3.7500e+000  1.2500e+000  6.5904e-002
 2.099999e-008  0.0000e+000  5.0000e+000  1.6875e-014  6.0159e-002
 2.124999e-008  0.0000e+000  5.0000e+000  0.0000e+000  6.0150e-002
 2.324999e-008  0.0000e+000  5.0000e+000  0.0000e+000  6.0160e-002
 2.525000e-008  0.0000e+000  5.0000e+000  0.0000e+000  6.0171e-002
 2.725000e-008  0.0000e+000  5.0000e+000  0.0000e+000  6.0140e-002
 2.925000e-008  0.0000e+000  5.0000e+000  0.0000e+000  6.0171e-002
 3.000000e-008  0.0000e+000  5.0000e+000  0.0000e+000  6.0140e-002
 3.025000e-008  0.0000e+000  5.0000e+000  1.2500e+000  5.1470e-002
 3.050000e-008  0.0000e+000  5.0000e+000  2.5000e+000  4.1919e-002
 3.075000e-008  0.0000e+000  5.0000e+000  3.7500e+000  3.5379e-002
 3.100000e-008  0.0000e+000  5.0000e+000  5.0000e+000  3.0595e-002
 3.125143e-008  0.0000e+000  5.0000e+000  5.0000e+000  2.9819e-002
 3.325143e-008  0.0000e+000  5.0000e+000  5.0000e+000  3.0592e-002
 3.525143e-008  0.0000e+000  5.0000e+000  5.0000e+000  2.9822e-002
 3.725143e-008  0.0000e+000  5.0000e+000  5.0000e+000  3.0591e-002
 3.925143e-008  0.0000e+000  5.0000e+000  5.0000e+000  2.9823e-002
 4.000000e-008  0.0000e+000  5.0000e+000  5.0000e+000  3.0591e-002
 4.025000e-008  1.2500e+000  3.7500e+000  3.7500e+000  3.6215e-002
 4.050000e-008  2.5000e+000  2.5000e+000  2.5000e+000  4.3350e-002
 4.075000e-008  3.7500e+000  1.2500e+000  1.2500e+000  5.4062e-002
 4.099999e-008  5.0000e+000  3.2863e-014  3.2863e-014  5.9375e-002
 4.124999e-008  5.0000e+000  0.0000e+000  0.0000e+000  6.0929e-002
 4.324999e-008  5.0000e+000  0.0000e+000  0.0000e+000  5.9371e-002
 4.524999e-008  5.0000e+000  0.0000e+000  0.0000e+000  6.0938e-002
 4.724999e-008  5.0000e+000  0.0000e+000  0.0000e+000  5.9373e-002
 4.924999e-008  5.0000e+000  0.0000e+000  0.0000e+000  6.0937e-002
 5.000000e-008  5.0000e+000  0.0000e+000  0.0000e+000  5.9376e-002
 5.025000e-008  5.0000e+000  0.0000e+000  1.2500e+000  5.1471e-002
 5.050000e-008  5.0000e+000  0.0000e+000  2.5000e+000  4.1919e-002
 5.075000e-008  5.0000e+000  0.0000e+000  3.7500e+000  3.5379e-002
 5.100000e-008  5.0000e+000  0.0000e+000  5.0000e+000  3.0595e-002
 5.125143e-008  5.0000e+000  0.0000e+000  5.0000e+000  2.9819e-002
 5.325143e-008  5.0000e+000  0.0000e+000  5.0000e+000  3.0592e-002
 5.525143e-008  5.0000e+000  0.0000e+000  5.0000e+000  2.9822e-002
 5.725143e-008  5.0000e+000  0.0000e+000  5.0000e+000  3.0591e-002
 5.925143e-008  5.0000e+000  0.0000e+000  5.0000e+000  2.9823e-002
 6.000000e-008  5.0000e+000  0.0000e+000  5.0000e+000  3.0591e-002
 6.025000e-008  5.0000e+000  1.2500e+000  3.7500e+000  3.1519e-002
 6.050000e-008  5.0000e+000  2.5000e+000  2.5000e+000  3.1519e-002
 6.075000e-008  5.0000e+000  3.7500e+000  1.2500e+000  3.1519e-002
 6.100000e-008  5.0000e+000  5.0000e+000  0.0000e+000  3.0210e-002
 6.125000e-008  5.0000e+000  5.0000e+000  0.0000e+000  3.0203e-002
 6.325000e-008  5.0000e+000  5.0000e+000  0.0000e+000  3.0210e-002
 6.525000e-008  5.0000e+000  5.0000e+000  0.0000e+000  3.0217e-002
 6.725000e-008  5.0000e+000  5.0000e+000  0.0000e+000  3.0197e-002
 6.925000e-008  5.0000e+000  5.0000e+000  0.0000e+000  3.0217e-002
 7.000000e-008  5.0000e+000  5.0000e+000  0.0000e+000  3.0197e-002
 7.025000e-008  5.0000e+000  5.0000e+000  1.2500e+000  2.7984e-002
 7.050000e-008  5.0000e+000  5.0000e+000  2.5000e+000  2.4911e-002
 7.075000e-008  5.0000e+000  5.0000e+000  3.7500e+000  2.2447e-002
 7.100000e-008  5.0000e+000  5.0000e+000  5.0000e+000  2.0427e-002
 7.125143e-008  5.0000e+000  5.0000e+000  5.0000e+000  1.9907e-002
 7.325143e-008  5.0000e+000  5.0000e+000  5.0000e+000  2.0425e-002
 7.525143e-008  5.0000e+000  5.0000e+000  5.0000e+000  1.9909e-002
 7.725143e-008  5.0000e+000  5.0000e+000  5.0000e+000  2.0425e-002
 7.925143e-008  5.0000e+000  5.0000e+000  5.0000e+000  1.9909e-002
 8.000000e-008  5.0000e+000  5.0000e+000  5.0000e+000  2.0425e-002
 8.025000e-008  3.7500e+000  3.7500e+000  3.7500e+000  2.6551e-002
 8.056499e-008  2.1750e+000  2.1750e+000  2.1750e+000  4.9905e-002
 8.080124e-008  9.9375e-001  9.9375e-001  9.9375e-001  1.5749e-001
 8.096245e-008  1.8772e-001  1.8772e-001  1.8772e-001  3.3258e+000
 8.100000e-008  0.0000e+000  0.0000e+000  0.0000e+000  4.2963e+000
 8.103972e-008  0.0000e+000  0.0000e+000  0.0000e+000  4.6535e+000
 8.120274e-008  0.0000e+000  0.0000e+000  0.0000e+000  4.9337e+000
 8.210668e-008  0.0000e+000  0.0000e+000  0.0000e+000  5.0558e+000
 8.410668e-008  0.0000e+000  0.0000e+000  0.0000e+000  4.9483e+000
 8.610668e-008  0.0000e+000  0.0000e+000  0.0000e+000  5.0479e+000
 8.810668e-008  0.0000e+000  0.0000e+000  0.0000e+000  4.9557e+000
 9.000000e-008  0.0000e+000  0.0000e+000  8.2718e-015  5.0408e+000
 9.025000e-008  0.0000e+000  0.0000e+000  1.2500e+000  4.4553e-001
 9.037500e-008  0.0000e+000  0.0000e+000  1.8750e+000  1.9559e-001
 9.049312e-008  0.0000e+000  0.0000e+000  2.4656e+000  1.3462e-001
 9.061449e-008  0.0000e+000  0.0000e+000  3.0725e+000  1.0578e-001
 9.075182e-008  0.0000e+000  0.0000e+000  3.7591e+000  8.2538e-002
 9.091340e-008  0.0000e+000  0.0000e+000  4.5670e+000  6.7869e-002
 9.100000e-008  0.0000e+000  0.0000e+000  5.0000e+000  6.0413e-002
 9.114798e-008  0.0000e+000  0.0000e+000  5.0000e+000  6.0156e-002
 9.262778e-008  0.0000e+000  0.0000e+000  5.0000e+000  6.0156e-002
 9.462778e-008  0.0000e+000  0.0000e+000  5.0000e+000  6.0156e-002
 9.662778e-008  0.0000e+000  0.0000e+000  5.0000e+000  6.0156e-002
 9.862778e-008  0.0000e+000  0.0000e+000  5.0000e+000  6.0156e-002
 1.000000e-007  0.0000e+000  4.9631e-014  5.0000e+000  6.0154e-002
*

* Parsing                      0.00 seconds
* Setup                        0.01 seconds
* DC operating point           0.00 seconds
* Transient Analysis           0.01 seconds
* Overhead                     2.00 seconds
* -----------------------------------------
* Total                        2.03 seconds

* Simulation completed

* End of T-Spice output file
