* T-Spice 13.00 Simulation	Tue Apr 24 14:31:06 2012	C:\Documents and Settings\Dhiraj\Desktop\VLSI Designs\Full_Adder\Full_Adder.sp
* Command line: tspice -o "C:\Documents and Settings\Dhiraj\Desktop\VLSI Designs\Full_Adder\Full_Adder.out" "C:\Documents and Settings\Dhiraj\Desktop\VLSI Designs\Full_Adder\Full_Adder.sp" 
* T-Spice Win32 13.00.20080321.01:01:33

*SEDIT: Alter blocks = 0

* Accuracy and Convergence options:
* numndset|dchold = 100
* 
* Timestep and Integration options:
*  relq|relchgtol = 0.0005
* 
* Model Evaluation options:
*            dcap = 2                    defnrb = 0 [sq]               defnrd = 0 [sq]
*          defnrs = 0 [sq]                 tnom = 25 [deg C]
* 
* General options:
*            temp = 25 [deg C]          threads = 2
* 
* Output options:
*           acout = 1                    ingold = 0
* 


*  Device and node counts:
*             MOSFETs - 23                MOSFET geometries - 2       
*                BJTs - 0                             JFETs - 0       
*             MESFETs - 0                            Diodes - 0       
*          Capacitors - 0                         Resistors - 14      
*           Inductors - 0                  Mutual inductors - 0       
*  Transmission lines - 0        Coupled transmission lines - 0       
*     Voltage sources - 4                   Current sources - 0       
*                VCVS - 0                              VCCS - 0       
*                CCVS - 0                              CCCS - 0       
*    V-control switch - 0                  I-control switch - 0       
*       Macro devices - 0        External C model instances - 0       
*         HDL devices - 0       
*         Subcircuits - 0              Subcircuit instances - 10      
*   Independent nodes - 20                   Boundary nodes - 5       
*         Total nodes - 25      


*SEDIT: Alter=0
*SEDIT: Analysis types DCOP 0 ACMODEL 0 AC 0 TRANSIENT 1 TRANSFER 0 NOISE 0 

*WEDIT: .tran   1e-009   1e-007
TRANSIENT ANALYSIS
Time<s>         v(Vin1)<V>   v(Vin2)<V>   v(Vcin)<V>    v(Sum)<V>  v(Carry)<V>
 0.000000e+000  0.0000e+000  0.0000e+000  0.0000e+000  1.0827e+000  1.1442e+000
 6.250000e-011  0.0000e+000  0.0000e+000  0.0000e+000  1.0827e+000  1.1442e+000
 6.875000e-010  0.0000e+000  0.0000e+000  0.0000e+000  1.0827e+000  1.1442e+000
 1.000000e-009  0.0000e+000  0.0000e+000  0.0000e+000  1.0827e+000  1.1442e+000
 1.250000e-009  0.0000e+000  0.0000e+000  0.0000e+000  1.0827e+000  1.1442e+000
 3.250000e-009  0.0000e+000  0.0000e+000  0.0000e+000  1.0827e+000  1.1442e+000
 5.250000e-009  0.0000e+000  0.0000e+000  0.0000e+000  1.0827e+000  1.1442e+000
 7.250000e-009  0.0000e+000  0.0000e+000  0.0000e+000  1.0827e+000  1.1442e+000
 9.250000e-009  0.0000e+000  0.0000e+000  0.0000e+000  1.0827e+000  1.1442e+000
 1.000000e-008  0.0000e+000  0.0000e+000  0.0000e+000  1.0827e+000  1.1442e+000
 1.001621e-008  0.0000e+000  0.0000e+000  8.1073e-002  1.0827e+000  1.1441e+000
 1.010621e-008  0.0000e+000  0.0000e+000  5.3107e-001  1.0845e+000  1.1445e+000
 1.015121e-008  0.0000e+000  0.0000e+000  7.5607e-001  1.0961e+000  1.1456e+000
 1.020823e-008  0.0000e+000  0.0000e+000  1.0412e+000  1.1360e+000  1.1483e+000
 1.027241e-008  0.0000e+000  0.0000e+000  1.3621e+000  1.2097e+000  1.1511e+000
 1.034051e-008  0.0000e+000  0.0000e+000  1.7026e+000  1.3425e+000  1.1530e+000
 1.041709e-008  0.0000e+000  0.0000e+000  2.0855e+000  1.6079e+000  1.1532e+000
 1.049316e-008  0.0000e+000  0.0000e+000  2.4658e+000  2.1674e+000  1.1533e+000
 1.056050e-008  0.0000e+000  0.0000e+000  2.8025e+000  2.7697e+000  1.1535e+000
 1.061325e-008  0.0000e+000  0.0000e+000  3.0663e+000  3.0406e+000  1.1536e+000
 1.067035e-008  0.0000e+000  0.0000e+000  3.3518e+000  3.2762e+000  1.1537e+000
 1.074715e-008  0.0000e+000  0.0000e+000  3.7358e+000  3.4717e+000  1.1539e+000
 1.085058e-008  0.0000e+000  0.0000e+000  4.2529e+000  3.6634e+000  1.1542e+000
 1.098164e-008  0.0000e+000  0.0000e+000  4.9082e+000  3.8234e+000  1.1544e+000
 1.100000e-008  0.0000e+000  0.0000e+000  5.0000e+000  3.8447e+000  1.1545e+000
 1.106141e-008  0.0000e+000  0.0000e+000  5.0000e+000  3.8480e+000  1.1545e+000
 1.167553e-008  0.0000e+000  0.0000e+000  5.0000e+000  3.8482e+000  1.1545e+000
 1.367553e-008  0.0000e+000  0.0000e+000  5.0000e+000  3.8482e+000  1.1545e+000
 1.567553e-008  0.0000e+000  0.0000e+000  5.0000e+000  3.8482e+000  1.1545e+000
 1.767553e-008  0.0000e+000  0.0000e+000  5.0000e+000  3.8482e+000  1.1545e+000
 1.967553e-008  0.0000e+000  0.0000e+000  5.0000e+000  3.8482e+000  1.1545e+000
 2.000000e-008  0.0000e+000  0.0000e+000  5.0000e+000  3.8482e+000  1.1545e+000
 2.001520e-008  0.0000e+000  7.6015e-002  4.9240e+000  3.8361e+000  1.1544e+000
 2.010520e-008  0.0000e+000  5.2601e-001  4.4740e+000  3.7327e+000  1.1542e+000
 2.015020e-008  0.0000e+000  7.5101e-001  4.2490e+000  3.6708e+000  1.1543e+000
 2.020722e-008  0.0000e+000  1.0361e+000  3.9639e+000  3.5763e+000  1.1552e+000
 2.027140e-008  0.0000e+000  1.3570e+000  3.6430e+000  3.4495e+000  1.1573e+000
 2.033950e-008  0.0000e+000  1.6975e+000  3.3025e+000  3.2869e+000  1.1616e+000
 2.041596e-008  0.0000e+000  2.0798e+000  2.9202e+000  3.0832e+000  1.1729e+000
 2.048300e-008  0.0000e+000  2.4150e+000  2.5850e+000  2.9927e+000  1.1937e+000
 2.053777e-008  0.0000e+000  2.6889e+000  2.3111e+000  3.0070e+000  1.2038e+000
 2.059776e-008  0.0000e+000  2.9888e+000  2.0112e+000  2.8910e+000  1.1940e+000
 2.064932e-008  0.0000e+000  3.2466e+000  1.7534e+000  2.9947e+000  1.1817e+000
 2.071478e-008  0.0000e+000  3.5739e+000  1.4261e+000  3.2399e+000  1.1669e+000
 2.079096e-008  0.0000e+000  3.9548e+000  1.0452e+000  3.3558e+000  1.1542e+000
 2.086515e-008  0.0000e+000  4.3258e+000  6.7421e-001  3.4009e+000  1.1469e+000
 2.093837e-008  0.0000e+000  4.6919e+000  3.0814e-001  3.4218e+000  1.1442e+000
 2.097497e-008  0.0000e+000  4.8749e+000  1.2511e-001  3.4619e+000  1.1444e+000
 2.100000e-008  0.0000e+000  5.0000e+000  0.0000e+000  3.4657e+000  1.1443e+000
 2.104251e-008  0.0000e+000  5.0000e+000  0.0000e+000  3.4760e+000  1.1443e+000
 2.146770e-008  0.0000e+000  5.0000e+000  0.0000e+000  3.4771e+000  1.1442e+000
 2.346770e-008  0.0000e+000  5.0000e+000  0.0000e+000  3.4771e+000  1.1442e+000
 2.546770e-008  0.0000e+000  5.0000e+000  0.0000e+000  3.4770e+000  1.1442e+000
 2.746770e-008  0.0000e+000  5.0000e+000  0.0000e+000  3.4771e+000  1.1442e+000
 2.946770e-008  0.0000e+000  5.0000e+000  0.0000e+000  3.4770e+000  1.1442e+000
 3.000000e-008  0.0000e+000  5.0000e+000  0.0000e+000  3.4770e+000  1.1442e+000
 3.001621e-008  0.0000e+000  5.0000e+000  8.1084e-002  3.4777e+000  1.1441e+000
 3.010621e-008  0.0000e+000  5.0000e+000  5.3108e-001  3.4784e+000  1.1446e+000
 3.015121e-008  0.0000e+000  5.0000e+000  7.5608e-001  3.4977e+000  1.1463e+000
 3.020800e-008  0.0000e+000  5.0000e+000  1.0400e+000  3.5355e+000  1.1518e+000
 3.027205e-008  0.0000e+000  5.0000e+000  1.3603e+000  3.4906e+000  1.1614e+000
 3.034008e-008  0.0000e+000  5.0000e+000  1.7004e+000  3.3350e+000  1.1776e+000
 3.041657e-008  0.0000e+000  5.0000e+000  2.0829e+000  2.9460e+000  1.2063e+000
 3.050633e-008  0.0000e+000  5.0000e+000  2.5317e+000  1.8523e+000  1.2672e+000
 3.055735e-008  0.0000e+000  5.0000e+000  2.7868e+000  1.5087e+000  1.3280e+000
 3.061688e-008  0.0000e+000  5.0000e+000  3.0844e+000  1.3618e+000  1.4686e+000
 3.069077e-008  0.0000e+000  5.0000e+000  3.4539e+000  1.2839e+000  2.0686e+000
 3.075977e-008  0.0000e+000  5.0000e+000  3.7989e+000  1.2456e+000  3.5268e+000
 3.081373e-008  0.0000e+000  5.0000e+000  4.0687e+000  1.2231e+000  3.9595e+000
 3.088920e-008  0.0000e+000  5.0000e+000  4.4460e+000  1.2046e+000  4.1575e+000
 3.100000e-008  0.0000e+000  5.0000e+000  5.0000e+000  1.1832e+000  4.3545e+000
 3.116738e-008  0.0000e+000  5.0000e+000  5.0000e+000  1.1834e+000  4.3488e+000
 3.284118e-008  0.0000e+000  5.0000e+000  5.0000e+000  1.1834e+000  4.3488e+000
 3.484118e-008  0.0000e+000  5.0000e+000  5.0000e+000  1.1834e+000  4.3491e+000
 3.684118e-008  0.0000e+000  5.0000e+000  5.0000e+000  1.1834e+000  4.3488e+000
 3.884118e-008  0.0000e+000  5.0000e+000  5.0000e+000  1.1834e+000  4.3491e+000
 4.000000e-008  0.0000e+000  5.0000e+000  5.0000e+000  1.1834e+000  4.3488e+000
 4.001585e-008  7.9268e-002  4.9207e+000  4.9207e+000  1.1856e+000  4.3389e+000
 4.010585e-008  5.2927e-001  4.4707e+000  4.4707e+000  1.2116e+000  4.1704e+000
 4.015085e-008  7.5427e-001  4.2457e+000  4.2457e+000  1.2295e+000  4.0282e+000
 4.016830e-008  8.4151e-001  4.1585e+000  4.1585e+000  1.2368e+000  3.9510e+000
 4.018523e-008  9.2616e-001  4.0738e+000  4.0738e+000  1.2415e+000  3.8817e+000
 4.022020e-008  1.1010e+000  3.8990e+000  3.8990e+000  1.2579e+000  3.6579e+000
 4.027047e-008  1.3524e+000  3.6476e+000  3.6476e+000  1.2955e+000  2.7989e+000
 4.032263e-008  1.6132e+000  3.3868e+000  3.3868e+000  1.3512e+000  1.7855e+000
 4.035337e-008  1.7669e+000  3.2331e+000  3.2331e+000  1.4003e+000  1.5778e+000
 4.039166e-008  1.9583e+000  3.0417e+000  3.0417e+000  1.4878e+000  1.4726e+000
 4.043379e-008  2.1690e+000  2.8310e+000  2.8310e+000  1.6581e+000  1.4002e+000
 4.048561e-008  2.4281e+000  2.5719e+000  2.5719e+000  2.1076e+000  1.3382e+000
 4.054205e-008  2.7103e+000  2.2897e+000  2.2897e+000  2.7403e+000  1.2898e+000
 4.060111e-008  3.0056e+000  1.9944e+000  1.9944e+000  2.8794e+000  1.2514e+000
 4.067126e-008  3.3563e+000  1.6437e+000  1.6437e+000  3.0786e+000  1.2111e+000
 4.075407e-008  3.7704e+000  1.2296e+000  1.2296e+000  3.3407e+000  1.1767e+000
 4.083704e-008  4.1852e+000  8.1475e-001  8.1475e-001  3.3947e+000  1.1536e+000
 4.091447e-008  4.5724e+000  4.2763e-001  4.2763e-001  3.4275e+000  1.1454e+000
 4.098926e-008  4.9463e+000  5.3663e-002  5.3663e-002  3.4555e+000  1.1438e+000
 4.100000e-008  5.0000e+000  0.0000e+000  0.0000e+000  3.4718e+000  1.1449e+000
 4.102784e-008  5.0000e+000  0.0000e+000  0.0000e+000  3.4757e+000  1.1443e+000
 4.130631e-008  5.0000e+000  0.0000e+000  0.0000e+000  3.4771e+000  1.1442e+000
 4.330631e-008  5.0000e+000  0.0000e+000  0.0000e+000  3.4771e+000  1.1442e+000
 4.530631e-008  5.0000e+000  0.0000e+000  0.0000e+000  3.4770e+000  1.1442e+000
 4.730631e-008  5.0000e+000  0.0000e+000  0.0000e+000  3.4771e+000  1.1442e+000
 4.930631e-008  5.0000e+000  0.0000e+000  0.0000e+000  3.4770e+000  1.1442e+000
 5.000000e-008  5.0000e+000  0.0000e+000  0.0000e+000  3.4771e+000  1.1442e+000
 5.001621e-008  5.0000e+000  0.0000e+000  8.1079e-002  3.4777e+000  1.1441e+000
 5.010621e-008  5.0000e+000  0.0000e+000  5.3108e-001  3.4782e+000  1.1446e+000
 5.015121e-008  5.0000e+000  0.0000e+000  7.5608e-001  3.4977e+000  1.1463e+000
 5.020765e-008  5.0000e+000  0.0000e+000  1.0383e+000  3.5356e+000  1.1517e+000
 5.027150e-008  5.0000e+000  0.0000e+000  1.3575e+000  3.4913e+000  1.1613e+000
 5.033942e-008  5.0000e+000  0.0000e+000  1.6971e+000  3.3371e+000  1.1774e+000
 5.041578e-008  5.0000e+000  0.0000e+000  2.0789e+000  2.9522e+000  1.2059e+000
 5.050538e-008  5.0000e+000  0.0000e+000  2.5269e+000  1.8607e+000  1.2663e+000
 5.055661e-008  5.0000e+000  0.0000e+000  2.7831e+000  1.5123e+000  1.3269e+000
 5.061614e-008  5.0000e+000  0.0000e+000  3.0807e+000  1.3625e+000  1.4661e+000
 5.068985e-008  5.0000e+000  0.0000e+000  3.4493e+000  1.2850e+000  2.0525e+000
 5.075920e-008  5.0000e+000  0.0000e+000  3.7960e+000  1.2455e+000  3.5191e+000
 5.081323e-008  5.0000e+000  0.0000e+000  4.0662e+000  1.2237e+000  3.9579e+000
 5.088841e-008  5.0000e+000  0.0000e+000  4.4421e+000  1.2044e+000  4.1553e+000
 5.100000e-008  5.0000e+000  0.0000e+000  5.0000e+000  1.1835e+000  4.3549e+000
 5.116798e-008  5.0000e+000  0.0000e+000  5.0000e+000  1.1834e+000  4.3488e+000
 5.284780e-008  5.0000e+000  0.0000e+000  5.0000e+000  1.1834e+000  4.3488e+000
 5.484780e-008  5.0000e+000  0.0000e+000  5.0000e+000  1.1834e+000  4.3491e+000
 5.684780e-008  5.0000e+000  0.0000e+000  5.0000e+000  1.1834e+000  4.3488e+000
 5.884780e-008  5.0000e+000  0.0000e+000  5.0000e+000  1.1834e+000  4.3491e+000
 6.000000e-008  5.0000e+000  0.0000e+000  5.0000e+000  1.1834e+000  4.3488e+000
 6.001592e-008  5.0000e+000  7.9639e-002  4.9204e+000  1.1849e+000  4.3405e+000
 6.010592e-008  5.0000e+000  5.2964e-001  4.4704e+000  1.2002e+000  4.2219e+000
 6.015092e-008  5.0000e+000  7.5464e-001  4.2454e+000  1.2096e+000  4.1367e+000
 6.020794e-008  5.0000e+000  1.0397e+000  3.9603e+000  1.2272e+000  3.9515e+000
 6.027213e-008  5.0000e+000  1.3607e+000  3.6393e+000  1.2598e+000  3.4228e+000
 6.034023e-008  5.0000e+000  1.7012e+000  3.2988e+000  1.3194e+000  1.9206e+000
 6.037017e-008  5.0000e+000  1.8509e+000  3.1491e+000  1.3596e+000  1.6061e+000
 6.040739e-008  5.0000e+000  2.0370e+000  2.9630e+000  1.4369e+000  1.4880e+000
 6.046420e-008  5.0000e+000  2.3210e+000  2.6790e+000  1.8014e+000  1.3916e+000
 6.051793e-008  5.0000e+000  2.5897e+000  2.4103e+000  2.8008e+000  1.3960e+000
 6.055534e-008  5.0000e+000  2.7767e+000  2.2233e+000  2.4657e+000  1.4378e+000
 6.058670e-008  5.0000e+000  2.9335e+000  2.0665e+000  1.8513e+000  1.5521e+000
 6.061829e-008  5.0000e+000  3.0915e+000  1.9085e+000  1.6472e+000  1.7839e+000
 6.066092e-008  5.0000e+000  3.3046e+000  1.6954e+000  1.4406e+000  2.9438e+000
 6.069507e-008  5.0000e+000  3.4754e+000  1.5246e+000  1.3505e+000  3.7749e+000
 6.073168e-008  5.0000e+000  3.6584e+000  1.3416e+000  1.2634e+000  4.0552e+000
 6.078480e-008  5.0000e+000  3.9240e+000  1.0760e+000  1.1900e+000  4.2573e+000
 6.084676e-008  5.0000e+000  4.2338e+000  7.6619e-001  1.1298e+000  4.3836e+000
 6.091366e-008  5.0000e+000  4.5683e+000  4.3167e-001  1.1085e+000  4.4576e+000
 6.098319e-008  5.0000e+000  4.9160e+000  8.4038e-002  1.0982e+000  4.5169e+000
 6.100000e-008  5.0000e+000  5.0000e+000  0.0000e+000  1.1024e+000  4.5222e+000
 6.103484e-008  5.0000e+000  5.0000e+000  0.0000e+000  1.1001e+000  4.5293e+000
 6.138332e-008  5.0000e+000  5.0000e+000  0.0000e+000  1.0996e+000  4.5301e+000
 6.338332e-008  5.0000e+000  5.0000e+000  0.0000e+000  1.0996e+000  4.5301e+000
 6.538332e-008  5.0000e+000  5.0000e+000  0.0000e+000  1.0996e+000  4.5301e+000
 6.738332e-008  5.0000e+000  5.0000e+000  0.0000e+000  1.0996e+000  4.5301e+000
 6.938332e-008  5.0000e+000  5.0000e+000  0.0000e+000  1.0996e+000  4.5301e+000
 7.000000e-008  5.0000e+000  5.0000e+000  0.0000e+000  1.0996e+000  4.5301e+000
 7.001621e-008  5.0000e+000  5.0000e+000  8.1073e-002  1.0996e+000  4.5300e+000
 7.010621e-008  5.0000e+000  5.0000e+000  5.3107e-001  1.1012e+000  4.5304e+000
 7.015121e-008  5.0000e+000  5.0000e+000  7.5607e-001  1.1134e+000  4.5316e+000
 7.020823e-008  5.0000e+000  5.0000e+000  1.0412e+000  1.1544e+000  4.5346e+000
 7.027241e-008  5.0000e+000  5.0000e+000  1.3621e+000  1.2306e+000  4.5380e+000
 7.034051e-008  5.0000e+000  5.0000e+000  1.7026e+000  1.3685e+000  4.5411e+000
 7.041709e-008  5.0000e+000  5.0000e+000  2.0855e+000  1.6473e+000  4.5421e+000
 7.049452e-008  5.0000e+000  5.0000e+000  2.4726e+000  2.2538e+000  4.5421e+000
 7.055637e-008  5.0000e+000  5.0000e+000  2.7819e+000  2.7992e+000  4.5424e+000
 7.060862e-008  5.0000e+000  5.0000e+000  3.0431e+000  3.0622e+000  4.5425e+000
 7.066446e-008  5.0000e+000  5.0000e+000  3.3223e+000  3.2767e+000  4.5428e+000
 7.074366e-008  5.0000e+000  5.0000e+000  3.7183e+000  3.4596e+000  4.5430e+000
 7.084664e-008  5.0000e+000  5.0000e+000  4.2332e+000  3.6445e+000  4.5433e+000
 7.097539e-008  5.0000e+000  5.0000e+000  4.8770e+000  3.7969e+000  4.5437e+000
 7.100000e-008  5.0000e+000  5.0000e+000  5.0000e+000  3.8260e+000  4.5438e+000
 7.107044e-008  5.0000e+000  5.0000e+000  5.0000e+000  3.8285e+000  4.5438e+000
 7.177494e-008  5.0000e+000  5.0000e+000  5.0000e+000  3.8285e+000  4.5438e+000
 7.377494e-008  5.0000e+000  5.0000e+000  5.0000e+000  3.8285e+000  4.5438e+000
 7.577494e-008  5.0000e+000  5.0000e+000  5.0000e+000  3.8285e+000  4.5438e+000
 7.777494e-008  5.0000e+000  5.0000e+000  5.0000e+000  3.8285e+000  4.5438e+000
 7.977494e-008  5.0000e+000  5.0000e+000  5.0000e+000  3.8286e+000  4.5438e+000
 8.000000e-008  5.0000e+000  5.0000e+000  5.0000e+000  3.8287e+000  4.5438e+000
 8.001719e-008  4.9140e+000  4.9140e+000  4.9140e+000  3.8143e+000  4.5334e+000
 8.002924e-008  4.8538e+000  4.8538e+000  4.8538e+000  3.8023e+000  4.5232e+000
 8.007688e-008  4.6156e+000  4.6156e+000  4.6156e+000  3.7463e+000  4.4607e+000
 8.016913e-008  4.1543e+000  4.1543e+000  4.1543e+000  3.6175e+000  4.2384e+000
 8.029196e-008  3.5402e+000  3.5402e+000  3.5402e+000  3.3876e+000  2.6034e+000
 8.035789e-008  3.2105e+000  3.2105e+000  3.2105e+000  3.2300e+000  1.5520e+000
 8.039094e-008  3.0453e+000  3.0453e+000  3.0453e+000  3.1434e+000  1.4099e+000
 8.043838e-008  2.8081e+000  2.8081e+000  2.8081e+000  3.0280e+000  1.3416e+000
 8.048734e-008  2.5633e+000  2.5633e+000  2.5633e+000  2.9793e+000  1.3058e+000
 8.053385e-008  2.3307e+000  2.3307e+000  2.3307e+000  2.6207e+000  1.2905e+000
 8.056225e-008  2.1887e+000  2.1887e+000  2.1887e+000  2.5023e+000  1.2705e+000
 8.059652e-008  2.0174e+000  2.0174e+000  2.0174e+000  2.7906e+000  1.2422e+000
 8.063688e-008  1.8156e+000  1.8156e+000  1.8156e+000  2.7301e+000  1.2096e+000
 8.066416e-008  1.6792e+000  1.6792e+000  1.6792e+000  1.8806e+000  1.1919e+000
 8.068473e-008  1.5763e+000  1.5763e+000  1.5763e+000  1.5241e+000  1.1821e+000
 8.070849e-008  1.4575e+000  1.4575e+000  1.4575e+000  1.4122e+000  1.1738e+000
 8.074472e-008  1.2764e+000  1.2764e+000  1.2764e+000  1.2662e+000  1.1646e+000
 8.079640e-008  1.0180e+000  1.0180e+000  1.0180e+000  1.1749e+000  1.1549e+000
 8.085750e-008  7.1246e-001  7.1246e-001  7.1246e-001  1.1060e+000  1.1483e+000
 8.092395e-008  3.8024e-001  3.8024e-001  3.8024e-001  1.0882e+000  1.1445e+000
 8.099323e-008  3.3806e-002  3.3806e-002  3.3806e-002  1.0806e+000  1.1445e+000
 8.0999999e-008  0.0000e+000  0.0000e+000  0.0000e+000  1.0847e+000  1.1443e+000
 8.102210e-008  0.0000e+000  0.0000e+000  0.0000e+000  1.0830e+000  1.1443e+000
 8.124312e-008  0.0000e+000  0.0000e+000  0.0000e+000  1.0828e+000  1.1442e+000
 8.324312e-008  0.0000e+000  0.0000e+000  0.0000e+000  1.0827e+000  1.1442e+000
 8.524312e-008  0.0000e+000  0.0000e+000  0.0000e+000  1.0827e+000  1.1442e+000
 8.724312e-008  0.0000e+000  0.0000e+000  0.0000e+000  1.0827e+000  1.1442e+000
 8.924312e-008  0.0000e+000  0.0000e+000  0.0000e+000  1.0827e+000  1.1442e+000
 9.000000e-008  0.0000e+000  0.0000e+000  8.2718e-015  1.0827e+000  1.1442e+000
 9.001618e-008  0.0000e+000  0.0000e+000  8.0926e-002  1.0827e+000  1.1441e+000
 9.010618e-008  0.0000e+000  0.0000e+000  5.3093e-001  1.0842e+000  1.1445e+000
 9.015118e-008  0.0000e+000  0.0000e+000  7.5593e-001  1.0961e+000  1.1456e+000
 9.020820e-008  0.0000e+000  0.0000e+000  1.0410e+000  1.1359e+000  1.1483e+000
 9.027238e-008  0.0000e+000  0.0000e+000  1.3619e+000  1.2096e+000  1.1511e+000
 9.034048e-008  0.0000e+000  0.0000e+000  1.7024e+000  1.3425e+000  1.1530e+000
 9.041705e-008  0.0000e+000  0.0000e+000  2.0853e+000  1.6077e+000  1.1532e+000
 9.049313e-008  0.0000e+000  0.0000e+000  2.4657e+000  2.1672e+000  1.1533e+000
 9.056048e-008  0.0000e+000  0.0000e+000  2.8024e+000  2.7694e+000  1.1535e+000
 9.061323e-008  0.0000e+000  0.0000e+000  3.0662e+000  3.0406e+000  1.1536e+000
 9.067033e-008  0.0000e+000  0.0000e+000  3.3517e+000  3.2760e+000  1.1537e+000
 9.074712e-008  0.0000e+000  0.0000e+000  3.7356e+000  3.4718e+000  1.1539e+000
 9.085054e-008  0.0000e+000  0.0000e+000  4.2527e+000  3.6632e+000  1.1542e+000
 9.098159e-008  0.0000e+000  0.0000e+000  4.9080e+000  3.8235e+000  1.1544e+000
 9.100000e-008  0.0000e+000  0.0000e+000  5.0000e+000  3.8447e+000  1.1545e+000
 9.106148e-008  0.0000e+000  0.0000e+000  5.0000e+000  3.8480e+000  1.1545e+000
 9.167635e-008  0.0000e+000  0.0000e+000  5.0000e+000  3.8482e+000  1.1545e+000
 9.367635e-008  0.0000e+000  0.0000e+000  5.0000e+000  3.8482e+000  1.1545e+000
 9.567635e-008  0.0000e+000  0.0000e+000  5.0000e+000  3.8482e+000  1.1545e+000
