* T-Spice 13.00 Simulation	Mon Feb 11 14:44:01 2019	C:\Users\makif\Google Drive\TEZ ÇALIÞMAM\çizim\Counter_TDC\Counter_TDC\counter_TDC2.sp
* Command line: tspice -o "C:\Users\makif\Google Drive\TEZ ÇALIÞMAM\çizim\Counter_TDC\Counter_TDC\counter_TDC2.out" "C:\Users\makif\Google Drive\TEZ ÇALIÞMAM\çizim\Counter_TDC\Counter_TDC\counter_TDC2.sp" 
* T-Spice Win32 13.00.20080321.01:01:33

*SEDIT: Alter blocks = 0

* Accuracy and Convergence options:
* numndset|dchold = 100
* 
* Timestep and Integration options:
*  relq|relchgtol = 0.0005
* 
* Model Evaluation options:
*            dcap = 2                    defnrb = 0 [sq]               defnrd = 0 [sq]
*          defnrs = 0 [sq]                 tnom = 25 [deg C]
* 
* General options:
*            temp = 25 [deg C]          threads = 8
* 
* Output options:
*           acout = 1                    ingold = 0
* 


*  Device and node counts:
*             MOSFETs - 14                MOSFET geometries - 4       
*                BJTs - 0                             JFETs - 0       
*             MESFETs - 0                            Diodes - 0       
*          Capacitors - 0                         Resistors - 0       
*           Inductors - 0                  Mutual inductors - 0       
*  Transmission lines - 0        Coupled transmission lines - 0       
*     Voltage sources - 4                   Current sources - 0       
*                VCVS - 0                              VCCS - 0       
*                CCVS - 0                              CCCS - 0       
*    V-control switch - 0                  I-control switch - 0       
*       Macro devices - 0        External C model instances - 0       
*         HDL devices - 0       
*         Subcircuits - 0              Subcircuit instances - 4       
*   Independent nodes - 7                    Boundary nodes - 5       
*         Total nodes - 12      


*SEDIT: Alter=0
*SEDIT: Analysis types DCOP 0 ACMODEL 0 AC 0 TRANSIENT 1 TRANSFER 0 NOISE 0 

*WEDIT: .tran   1e-010   1e-007
TRANSIENT ANALYSIS
Time<s>        v(Stop,Gnd)<V>  v(Start,Gnd)<V>  v(Out,Gnd)<V>  v(Clock,Gnd)<V>  v(Time,Gnd)<V>
 0.000000e+000  3.3000e+000  0.0000e+000  1.7015e-008  0.0000e+000  2.3839e-009
 1.000000e-012  3.3000e+000  0.0000e+000  2.1307e-001  3.3000e+000  9.3532e-002
 1.315000e-012  3.3000e+000  0.0000e+000  1.9570e-001  3.3000e+000  8.9668e-002
 4.465000e-012  3.3000e+000  0.0000e+000  9.0999e-002  3.3000e+000  6.2483e-002
 9.884126e-012  3.3000e+000  0.0000e+000 -2.2421e-002  3.3000e+000  2.7751e-002
 1.582385e-011  3.3000e+000  0.0000e+000 -4.0687e-002  3.3000e+000  1.0966e-002
 2.460989e-011  3.3000e+000  0.0000e+000 -2.3662e-002  3.3000e+000  2.3433e-003
 4.006722e-011  3.3000e+000  0.0000e+000 -3.6451e-003  3.3000e+000  8.9633e-005
 7.269002e-011  3.3000e+000  0.0000e+000  1.0844e-003  3.3000e+000  8.5555e-004
 1.592432e-010  3.3000e+000  0.0000e+000 -2.3781e-004  3.3000e+000  1.2449e-004
 3.592432e-010  3.3000e+000  0.0000e+000  2.0146e-004  3.3000e+000  1.2607e-005
 5.592432e-010  3.3000e+000  0.0000e+000 -1.5456e-004  3.3000e+000  4.8503e-005
 7.592432e-010  3.3000e+000  0.0000e+000  1.2685e-004  3.3000e+000 -1.1945e-005
 9.592432e-010  3.3000e+000  0.0000e+000 -1.0360e-004  3.3000e+000  3.8075e-005
 1.159243e-009  3.3000e+000  0.0000e+000  8.8976e-005  3.3000e+000 -1.3704e-005
 1.359243e-009  3.3000e+000  0.0000e+000 -7.5608e-005  3.3000e+000  2.9055e-005
 1.559243e-009  3.3000e+000  0.0000e+000  6.6654e-005  3.3000e+000 -1.0657e-005
 1.759243e-009  3.3000e+000  0.0000e+000 -5.7971e-005  3.3000e+000  2.1487e-005
 1.959243e-009  3.3000e+000  0.0000e+000  5.1897e-005  3.3000e+000 -7.0789e-006
 2.159243e-009  3.3000e+000  0.0000e+000 -4.5716e-005  3.3000e+000  1.5687e-005
 2.359243e-009  3.3000e+000  0.0000e+000  4.1286e-005  3.3000e+000 -4.1030e-006
 2.559243e-009  3.3000e+000  0.0000e+000 -3.6639e-005  3.3000e+000  1.1427e-005
 2.759243e-009  3.3000e+000  0.0000e+000  3.3253e-005  3.3000e+000 -1.9251e-006
 2.959243e-009  3.3000e+000  0.0000e+000 -2.9623e-005  3.3000e+000  8.3998e-006
 3.159243e-009  3.3000e+000  0.0000e+000  2.6959e-005  3.3000e+000 -4.3889e-007
 3.359243e-009  3.3000e+000  0.0000e+000 -2.4061e-005  3.3000e+000  6.2787e-006
 3.559243e-009  3.3000e+000  0.0000e+000  2.1932e-005  3.3000e+000  5.2579e-007
 3.759243e-009  3.3000e+000  0.0000e+000 -1.9592e-005  3.3000e+000  4.8034e-006
 3.959243e-009  3.3000e+000  0.0000e+000  1.7879e-005  3.3000e+000  1.1195e-006
 4.159243e-009  3.3000e+000  0.0000e+000 -1.5976e-005  3.3000e+000  3.7779e-006
 4.359243e-009  3.3000e+000  0.0000e+000  1.4592e-005  3.3000e+000  1.4607e-006
 4.559243e-009  3.3000e+000  0.0000e+000 -1.3038e-005  3.3000e+000  3.0611e-006
 4.759243e-009  3.3000e+000  0.0000e+000  1.1919e-005  3.3000e+000  1.6361e-006
 4.959243e-009  3.3000e+000  0.0000e+000 -1.0646e-005  3.3000e+000  2.5404e-006
 5.001000e-009  3.3000e+000  0.0000e+000  6.7643e-006  3.3000e+000  2.0584e-006
 5.002000e-009  3.3000e+000  0.0000e+000 -2.2212e-001  0.0000e+000 -7.6680e-002
 5.0023150e-009  3.3000e+000  0.0000e+000 -2.0027e-001  0.0000e+000 -7.2663e-002
 5.005465e-009  3.3000e+000  0.0000e+000 -8.2664e-002  0.0000e+000 -4.5200e-002
 5.017517e-009  3.3000e+000  0.0000e+000  6.5123e-002  0.0000e+000  8.1987e-003
 5.036362e-009  3.3000e+000  0.0000e+000  4.4217e-004  0.0000e+000  5.6087e-003
 5.080896e-009  3.3000e+000  0.0000e+000  1.8753e-003  0.0000e+000 -1.2723e-003
 5.280896e-009  3.3000e+000  0.0000e+000 -1.9173e-003  0.0000e+000  9.3888e-004
 5.480896e-009  3.3000e+000  0.0000e+000  1.9272e-003  0.0000e+000 -6.8779e-004
 5.680896e-009  3.3000e+000  0.0000e+000 -1.9014e-003  0.0000e+000  5.0045e-004
 5.880896e-009  3.3000e+000  0.0000e+000  1.8518e-003  0.0000e+000 -3.5485e-004
 6.080896e-009  3.3000e+000  0.0000e+000 -1.7765e-003  0.0000e+000  2.4731e-004
 6.280896e-009  3.3000e+000  0.0000e+000  1.6982e-003  0.0000e+000 -1.6540e-004
 6.480896e-009  3.3000e+000  0.0000e+000 -1.6008e-003  0.0000e+000  1.0543e-004
 6.680896e-009  3.3000e+000  0.0000e+000  1.5118e-003  0.0000e+000 -6.1032e-005
 6.880896e-009  3.3000e+000  0.0000e+000 -1.4084e-003  0.0000e+000  2.8836e-005
 7.080896e-009  3.3000e+000  0.0000e+000  1.3190e-003  0.0000e+000 -6.0793e-006
 7.280896e-009  3.3000e+000  0.0000e+000 -1.2187e-003  0.0000e+000 -1.0211e-005
 7.480896e-009  3.3000e+000  0.0000e+000  1.1346e-003  0.0000e+000  2.0958e-005
 7.680896e-009  3.3000e+000  0.0000e+000 -1.0421e-003  0.0000e+000 -2.8029e-005
 7.880896e-009  3.3000e+000  0.0000e+000  9.6594e-004  0.0000e+000  3.2310e-005
 8.080896e-009  3.3000e+000  0.0000e+000 -8.8342e-004  0.0000e+000 -3.4435e-005
 8.280896e-009  3.3000e+000  0.0000e+000  8.1612e-004  0.0000e+000  3.5290e-005
 8.480896e-009  3.3000e+000  0.0000e+000 -7.4400e-004  0.0000e+000 -3.4884e-005
 8.680896e-009  3.3000e+000  0.0000e+000  6.8561e-004  0.0000e+000  3.4037e-005
 8.880896e-009  3.3000e+000  0.0000e+000 -6.2350e-004  0.0000e+000 -3.2453e-005
 9.080896e-009  3.3000e+000  0.0000e+000  5.7348e-004  0.0000e+000  3.0858e-005
 9.280896e-009  3.3000e+000  0.0000e+000 -5.2057e-004  0.0000e+000 -2.8834e-005
 9.480896e-009  3.3000e+000  0.0000e+000  4.7811e-004  0.0000e+000  2.7006e-005
 9.680896e-009  3.3000e+000  0.0000e+000 -4.3338e-004  0.0000e+000 -2.4928e-005
 9.880896e-009  3.3000e+000  0.0000e+000  3.9759e-004  0.0000e+000  2.3129e-005
 1.000000e-008  3.3000e+000  0.0000e+000 -3.3553e-004  0.0000e+000 -1.9949e-005
 1.0000999e-008  0.0000e+000  0.0000e+000  1.9606e-001  3.3000e+000 -1.3657e-001
 1.0001314e-008  0.0000e+000  0.0000e+000  1.8353e-001  3.3000e+000 -1.3535e-001
 1.000446e-008  0.0000e+000  0.0000e+000  1.0259e-001  3.3000e+000 -1.2327e-001
 1.002197e-008  0.0000e+000  0.0000e+000 -6.5374e-002  3.3000e+000 -6.7390e-002
 1.004734e-008  0.0000e+000  0.0000e+000  7.5555e-003  3.3000e+000 -2.3291e-002
 1.010380e-008  0.0000e+000  0.0000e+000 -9.8593e-003  3.3000e+000  1.9383e-004
 1.030380e-008  0.0000e+000  0.0000e+000  9.1642e-003  3.3000e+000 -2.0529e-004
 1.050380e-008  0.0000e+000  0.0000e+000 -8.4249e-003  3.3000e+000  8.4660e-005
 1.070380e-008  0.0000e+000  0.0000e+000  7.7215e-003  3.3000e+000  3.7792e-005
 1.090380e-008  0.0000e+000  0.0000e+000 -7.0371e-003  3.3000e+000 -1.0429e-004
 1.110380e-008  0.0000e+000  0.0000e+000  6.4074e-003  3.3000e+000  1.4911e-004
 1.130380e-008  0.0000e+000  0.0000e+000 -5.8159e-003  3.3000e+000 -1.5762e-004
 1.150380e-008  0.0000e+000  0.0000e+000  5.2793e-003  3.3000e+000  1.6512e-004
 1.170380e-008  0.0000e+000  0.0000e+000 -4.7828e-003  3.3000e+000 -1.5254e-004
 1.190380e-008  0.0000e+000  0.0000e+000  4.3352e-003  3.3000e+000  1.4849e-004
 1.210380e-008  0.0000e+000  0.0000e+000 -4.0076e-003  3.3000e+000 -1.3207e-004
 1.230380e-008  0.0000e+000  0.0000e+000  3.7333e-003  3.3000e+000  1.2665e-004
 1.250380e-008  0.0000e+000  0.0000e+000 -3.4341e-003  3.3000e+000 -1.1004e-004
 1.270380e-008  0.0000e+000  0.0000e+000  3.1878e-003  3.3000e+000  1.0552e-004
 1.290380e-008  0.0000e+000  0.0000e+000 -2.9217e-003  3.3000e+000 -9.0980e-005
 1.310380e-008  0.0000e+000  0.0000e+000  2.7041e-003  3.3000e+000  8.7992e-005
 1.330380e-008  0.0000e+000  0.0000e+000 -2.4709e-003  3.3000e+000 -7.5455e-005
 1.350380e-008  0.0000e+000  0.0000e+000  2.2811e-003  3.3000e+000  7.3729e-005
 1.370380e-008  0.0000e+000  0.0000e+000 -2.0790e-003  3.3000e+000 -6.2793e-005
 1.390380e-008  0.0000e+000  0.0000e+000  1.9152e-003  3.3000e+000  6.1999e-005
 1.410380e-008  0.0000e+000  0.0000e+000 -1.7417e-003  3.3000e+000 -5.2322e-005
 1.430380e-008  0.0000e+000  0.0000e+000  1.6015e-003  3.3000e+000  5.2220e-005
 1.450380e-008  0.0000e+000  0.0000e+000 -1.4537e-003  3.3000e+000 -4.3562e-005
 1.470380e-008  0.0000e+000  0.0000e+000  1.3346e-003  3.3000e+000  4.3989e-005
 1.490380e-008  0.0000e+000  0.0000e+000 -1.2096e-003  3.3000e+000 -3.6182e-005
 1.500100e-008  0.0000e+000  0.0000e+000  1.0003e-003  3.3000e+000  3.3618e-005
 1.502599e-008  0.0000e+000  0.0000e+000 -1.3576e-002  0.0000e+000 -1.9763e-002
 1.503387e-008  0.0000e+000  0.0000e+000  7.5437e-003  0.0000e+000 -8.2271e-003
 1.511262e-008  0.0000e+000  0.0000e+000  2.9876e-003  0.0000e+000  8.6395e-003
 1.530022e-008  0.0000e+000  0.0000e+000 -5.0259e-003  0.0000e+000 -7.6517e-003
 1.550022e-008  0.0000e+000  0.0000e+000  6.3555e-003  0.0000e+000  6.6636e-003
 1.570022e-008  0.0000e+000  0.0000e+000 -7.1029e-003  0.0000e+000 -5.7053e-003
 1.590022e-008  0.0000e+000  0.0000e+000  7.5780e-003  0.0000e+000  4.8327e-003
 1.610022e-008  0.0000e+000  0.0000e+000 -7.7052e-003  0.0000e+000 -4.0565e-003
 1.630022e-008  0.0000e+000  0.0000e+000  7.7036e-003  0.0000e+000  3.3880e-003
 1.650022e-008  0.0000e+000  0.0000e+000 -7.5073e-003  0.0000e+000 -2.8157e-003
 1.670022e-008  0.0000e+000  0.0000e+000  7.2588e-003  0.0000e+000  2.3358e-003
 1.690022e-008  0.0000e+000  0.0000e+000 -6.9102e-003  0.0000e+000 -1.9332e-003
 1.710022e-008  0.0000e+000  0.0000e+000  6.5507e-003  0.0000e+000  1.6002e-003
 1.730022e-008  0.0000e+000  0.0000e+000 -6.1468e-003  0.0000e+000 -1.3238e-003
 1.750022e-008  0.0000e+000  0.0000e+000  5.7538e-003  0.0000e+000  1.0970e-003
 1.770022e-008  0.0000e+000  0.0000e+000 -5.3481e-003  0.0000e+000 -9.0968e-004
 1.790022e-008  0.0000e+000  0.0000e+000  4.9639e-003  0.0000e+000  7.5644e-004
 1.810022e-008  0.0000e+000  0.0000e+000 -4.5839e-003  0.0000e+000 -6.3009e-004
 1.830022e-008  0.0000e+000  0.0000e+000  4.2295e-003  0.0000e+000  5.2673e-004
 1.850022e-008  0.0000e+000  0.0000e+000 -3.9768e-003  0.0000e+000 -4.4254e-004
 1.870022e-008  0.0000e+000  0.0000e+000  3.7463e-003  0.0000e+000  3.7476e-004
 1.890022e-008  0.0000e+000  0.0000e+000 -3.4932e-003  0.0000e+000 -3.1675e-004
 1.910022e-008  0.0000e+000  0.0000e+000  3.2733e-003  0.0000e+000  2.7026e-004
 1.930022e-008  0.0000e+000  0.0000e+000 -3.0331e-003  0.0000e+000 -2.3033e-004
 1.950022e-008  0.0000e+000  0.0000e+000  2.8296e-003  0.0000e+000  1.9829e-004
 1.970022e-008  0.0000e+000  0.0000e+000 -2.6088e-003  0.0000e+000 -1.7059e-004
 1.990022e-008  0.0000e+000  0.0000e+000  2.4248e-003  0.0000e+000  1.4827e-004
 2.000000e-008  0.0000e+000  0.0000e+000 -1.9964e-003  0.0000e+000 -1.1228e-004
 2.0001000e-008  0.0000e+000  0.0000e+000  2.0538e-001  3.3000e+000  9.0998e-002
 2.0001315e-008  0.0000e+000  0.0000e+000  1.9214e-001  3.3000e+000  8.8371e-002
 2.000446e-008  0.0000e+000  0.0000e+000  1.0663e-001  3.3000e+000  6.7630e-002
 2.002104e-008  0.0000e+000  0.0000e+000 -6.6708e-002  3.3000e+000  2.8090e-003
 2.004497e-008  0.0000e+000  0.0000e+000  4.6331e-003  3.3000e+000 -9.4562e-003
 2.009883e-008  0.0000e+000  0.0000e+000 -8.2381e-003  3.3000e+000 -1.6886e-003
 2.029155e-008  0.0000e+000  0.0000e+000  7.6784e-003  3.3000e+000  1.3673e-003
 2.049155e-008  0.0000e+000  0.0000e+000 -7.0866e-003  3.3000e+000 -1.0962e-003
 2.069155e-008  0.0000e+000  0.0000e+000  6.5149e-003  3.3000e+000  8.7783e-004
 2.089155e-008  0.0000e+000  0.0000e+000 -5.9524e-003  3.3000e+000 -6.9257e-004
 2.109155e-008  0.0000e+000  0.0000e+000  5.4306e-003  3.3000e+000  5.5221e-004
 2.129155e-008  0.0000e+000  0.0000e+000 -4.9373e-003  3.3000e+000 -4.3482e-004
 2.149155e-008  0.0000e+000  0.0000e+000  4.4876e-003  3.3000e+000  3.5027e-004
 2.169155e-008  0.0000e+000  0.0000e+000 -4.1619e-003  3.3000e+000 -2.7844e-004
 2.189155e-008  0.0000e+000  0.0000e+000  3.7752e-003  3.3000e+000  2.2972e-004
 2.209155e-008  0.0000e+000  0.0000e+000 -3.4803e-003  3.3000e+000 -1.8561e-004
 2.229155e-008  0.0000e+000  0.0000e+000  3.2342e-003  3.3000e+000  1.5814e-004
 2.249155e-008  0.0000e+000  0.0000e+000 -2.9675e-003  3.3000e+000 -1.2979e-004
 2.269155e-008  0.0000e+000  0.0000e+000  2.7485e-003  3.3000e+000  1.1398e-004
 2.289155e-008  0.0000e+000  0.0000e+000 -2.5132e-003  3.3000e+000 -9.5066e-005
 2.309155e-008  0.0000e+000  0.0000e+000  2.3213e-003  3.3000e+000  8.6014e-005
 2.329155e-008  0.0000e+000  0.0000e+000 -2.1167e-003  3.3000e+000 -7.2576e-005
 2.349155e-008  0.0000e+000  0.0000e+000  1.9506e-003  3.3000e+000  6.7381e-005
 2.369155e-008  0.0000e+000  0.0000e+000 -1.7745e-003  3.3000e+000 -5.7165e-005
 2.389155e-008  0.0000e+000  0.0000e+000  1.6321e-003  3.3000e+000  5.4211e-005
 2.409155e-008  0.0000e+000  0.0000e+000 -1.4818e-003  3.3000e+000 -4.5970e-005
 2.429155e-008  0.0000e+000  0.0000e+000  1.3607e-003  3.3000e+000  4.4372e-005
 2.449155e-008  0.0000e+000  0.0000e+000 -1.2334e-003  3.3000e+000 -3.7419e-005
 2.469155e-008  0.0000e+000  0.0000e+000  1.1310e-003  3.3000e+000  3.6695e-005
 2.489155e-008  0.0000e+000  0.0000e+000 -1.0238e-003  3.3000e+000 -3.0646e-005
 2.500100e-008  0.0000e+000  0.0000e+000  8.6522e-004  3.3000e+000  2.8268e-005
 2.502600e-008  0.0000e+000  0.0000e+000 -1.3600e-002  0.0000e+000 -1.9771e-002
 2.503387e-008  0.0000e+000  0.0000e+000  7.5349e-003  0.0000e+000 -8.2321e-003
 2.511262e-008  0.0000e+000  0.0000e+000  2.9946e-003  0.0000e+000  8.6409e-003
 2.530022e-008  0.0000e+000  0.0000e+000 -5.0322e-003  0.0000e+000 -7.6528e-003
 2.550022e-008  0.0000e+000  0.0000e+000  6.3612e-003  0.0000e+000  6.6644e-003
 2.570022e-008  0.0000e+000  0.0000e+000 -7.1079e-003  0.0000e+000 -5.7059e-003
 2.590022e-008  0.0000e+000  0.0000e+000  7.5826e-003  0.0000e+000  4.8331e-003
 2.610022e-008  0.0000e+000  0.0000e+000 -7.7093e-003  0.0000e+000 -4.0569e-003
 2.630022e-008  0.0000e+000  0.0000e+000  7.7074e-003  0.0000e+000  3.3883e-003
 2.650022e-008  0.0000e+000  0.0000e+000 -7.5107e-003  0.0000e+000 -2.8160e-003
 2.670022e-008  0.0000e+000  0.0000e+000  7.2619e-003  0.0000e+000  2.3360e-003
 2.690022e-008  0.0000e+000  0.0000e+000 -6.9129e-003  0.0000e+000 -1.9333e-003
 2.710022e-008  0.0000e+000  0.0000e+000  6.5532e-003  0.0000e+000  1.6004e-003
 2.730022e-008  0.0000e+000  0.0000e+000 -6.1491e-003  0.0000e+000 -1.3240e-003
 2.750022e-008  0.0000e+000  0.0000e+000  5.7559e-003  0.0000e+000  1.0971e-003
 2.770022e-008  0.0000e+000  0.0000e+000 -5.3500e-003  0.0000e+000 -9.0978e-004
 2.790022e-008  0.0000e+000  0.0000e+000  4.9655e-003  0.0000e+000  7.5652e-004
 2.810022e-008  0.0000e+000  0.0000e+000 -4.5855e-003  0.0000e+000 -6.3017e-004
 2.830022e-008  0.0000e+000  0.0000e+000  4.2309e-003  0.0000e+000  5.2679e-004
 2.850022e-008  0.0000e+000  0.0000e+000 -3.9781e-003  0.0000e+000 -4.4260e-004
 2.870022e-008  0.0000e+000  0.0000e+000  3.7476e-003  0.0000e+000  3.7482e-004
 2.890022e-008  0.0000e+000  0.0000e+000 -3.4944e-003  0.0000e+000 -3.1680e-004
 2.910022e-008  0.0000e+000  0.0000e+000  3.2744e-003  0.0000e+000  2.7030e-004
 2.930022e-008  0.0000e+000  0.0000e+000 -3.0342e-003  0.0000e+000 -2.3037e-004
 2.950022e-008  0.0000e+000  0.0000e+000  2.8305e-003  0.0000e+000  1.9833e-004
 2.970022e-008  0.0000e+000  0.0000e+000 -2.6097e-003  0.0000e+000 -1.7063e-004
 2.990022e-008  0.0000e+000  0.0000e+000  2.4256e-003  0.0000e+000  1.4831e-004
 3.000000e-008  0.0000e+000  0.0000e+000 -1.9971e-003  1.0919e-011 -1.1231e-004
 3.0000999e-008  0.0000e+000  0.0000e+000  2.0538e-001  3.3000e+000  9.1015e-002
 3.0001314e-008  0.0000e+000  0.0000e+000  1.9214e-001  3.3000e+000  8.8388e-002
 3.000446e-008  0.0000e+000  0.0000e+000  1.0664e-001  3.3000e+000  6.7644e-002
 3.002104e-008  0.0000e+000  0.0000e+000 -6.6708e-002  3.3000e+000  2.8142e-003
 3.004497e-008  0.0000e+000  0.0000e+000  4.6325e-003  3.3000e+000 -9.4556e-003
 3.009883e-008  0.0000e+000  0.0000e+000 -8.2379e-003  3.3000e+000 -1.6896e-003
 3.029154e-008  0.0000e+000  0.0000e+000  7.6781e-003  3.3000e+000  1.3669e-003
 3.049154e-008  0.0000e+000  0.0000e+000 -7.0864e-003  3.3000e+000 -1.0970e-003
 3.069154e-008  0.0000e+000  0.0000e+000  6.5147e-003  3.3000e+000  8.7734e-004
 3.089154e-008  0.0000e+000  0.0000e+000 -5.9522e-003  3.3000e+000 -6.9326e-004
 3.109154e-008  0.0000e+000  0.0000e+000  5.4304e-003  3.3000e+000  5.5171e-004
 3.129154e-008  0.0000e+000  0.0000e+000 -4.9372e-003  3.3000e+000 -4.3544e-004
 3.149154e-008  0.0000e+000  0.0000e+000  4.4874e-003  3.3000e+000  3.4978e-004
 3.169154e-008  0.0000e+000  0.0000e+000 -4.1618e-003  3.3000e+000 -2.7900e-004
 3.189154e-008  0.0000e+000  0.0000e+000  3.7751e-003  3.3000e+000  2.2924e-004
 3.209154e-008  0.0000e+000  0.0000e+000 -3.4803e-003  3.3000e+000 -1.8613e-004
 3.229154e-008  0.0000e+000  0.0000e+000  3.2342e-003  3.3000e+000  1.5767e-004
 3.249154e-008  0.0000e+000  0.0000e+000 -2.9675e-003  3.3000e+000 -1.3027e-004
 3.269154e-008  0.0000e+000  0.0000e+000  2.7484e-003  3.3000e+000  1.1354e-004
 3.289154e-008  0.0000e+000  0.0000e+000 -2.5132e-003  3.3000e+000 -9.5517e-005
 3.309154e-008  0.0000e+000  0.0000e+000  2.3213e-003  3.3000e+000  8.5587e-005
 3.329154e-008  0.0000e+000  0.0000e+000 -2.1166e-003  3.3000e+000 -7.3001e-005
 3.349154e-008  0.0000e+000  0.0000e+000  1.9505e-003  3.3000e+000  6.6974e-005
 3.369154e-008  0.0000e+000  0.0000e+000 -1.7744e-003  3.3000e+000 -5.7566e-005
 3.389154e-008  0.0000e+000  0.0000e+000  1.6320e-003  3.3000e+000  5.3823e-005
 3.409154e-008  0.0000e+000  0.0000e+000 -1.4818e-003  3.3000e+000 -4.6349e-005
 3.429154e-008  0.0000e+000  0.0000e+000  1.3606e-003  3.3000e+000  4.4003e-005
 3.449154e-008  0.0000e+000  0.0000e+000 -1.2334e-003  3.3000e+000 -3.7780e-005
 3.469154e-008  0.0000e+000  0.0000e+000  1.1310e-003  3.3000e+000  3.6343e-005
 3.489154e-008  0.0000e+000  0.0000e+000 -1.0238e-003  3.3000e+000 -3.0989e-005
 3.500100e-008  0.0000e+000  0.0000e+000  8.6521e-004  3.3000e+000  2.7929e-005
 3.5001999e-008  0.0000e+000  0.0000e+000 -2.2169e-001  1.0918e-011 -8.1007e-002
 3.50023149e-008  0.0000e+000  0.0000e+000 -1.9994e-001  0.0000e+000 -7.8051e-002
 3.5005464e-008  0.0000e+000  0.0000e+000 -8.2576e-002  0.0000e+000 -5.5994e-002
 3.501754e-008  0.0000e+000  0.0000e+000  6.5332e-002  0.0000e+000 -5.2878e-003
 3.503641e-008  0.0000e+000  0.0000e+000  5.2429e-004  0.0000e+000  5.4557e-003
 3.508098e-008  0.0000e+000  0.0000e+000  1.7142e-003  0.0000e+000  7.6942e-004
 3.528098e-008  0.0000e+000  0.0000e+000 -1.7648e-003  0.0000e+000 -7.1559e-004
 3.548098e-008  0.0000e+000  0.0000e+000  1.7831e-003  0.0000e+000  6.4263e-004
