* T-Spice 13.00 Simulation	Sat Feb 09 21:10:57 2019	C:\Users\makif\Google Drive\TEZ ÇALIÞMAM\çizim\Counter_TDC\Counter_TDC\counter_TDC.sp
* Command line: tspice -o "C:\Users\makif\Google Drive\TEZ ÇALIÞMAM\çizim\Counter_TDC\Counter_TDC\counter_TDC.out" "C:\Users\makif\Google Drive\TEZ ÇALIÞMAM\çizim\Counter_TDC\Counter_TDC\counter_TDC.sp" 
* T-Spice Win32 13.00.20080321.01:01:33
* Warning : "130nm.md" line 1 Invalid binned model NMOS
*         : "130nm.md" line 1 Binned models must define LMIN, LMAX, WMIN, and WMAX, and have a name suffix of .# (e.g. nch.1)
* Warning : "130nm.md" line 142 Invalid binned model PMOS
*         : "130nm.md" line 142 Binned models must define LMIN, LMAX, WMIN, and WMAX, and have a name suffix of .# (e.g. nch.1)
* Warning : Device XNAND2C_1.MN1 - Acde = 0.3 is too small.

*SEDIT: Alter blocks = 0

* Accuracy and Convergence options:
* numndset|dchold = 100
* 
* Timestep and Integration options:
*  relq|relchgtol = 0.0005
* 
* Model Evaluation options:
*            dcap = 2                    defnrb = 0 [sq]               defnrd = 0 [sq]
*          defnrs = 0 [sq]                 tnom = 25 [deg C]
* 
* General options:
*            temp = 25 [deg C]          threads = 8
* 
* Output options:
*           acout = 1                    ingold = 0
* 


*  Device and node counts:
*             MOSFETs - 96                MOSFET geometries - 4       
*                BJTs - 0                             JFETs - 0       
*             MESFETs - 0                            Diodes - 0       
*          Capacitors - 0                         Resistors - 0       
*           Inductors - 0                  Mutual inductors - 0       
*  Transmission lines - 0        Coupled transmission lines - 0       
*     Voltage sources - 4                   Current sources - 0       
*                VCVS - 0                              VCCS - 0       
*                CCVS - 0                              CCCS - 0       
*    V-control switch - 0                  I-control switch - 0       
*       Macro devices - 0        External C model instances - 0       
*         HDL devices - 0       
*         Subcircuits - 0              Subcircuit instances - 19      
*   Independent nodes - 240                  Boundary nodes - 5       
*         Total nodes - 245     

* *** 4 WARNING MESSAGES GENERATED DURING SETUP


*SEDIT: Alter=0
*SEDIT: Analysis types DCOP 0 ACMODEL 0 AC 0 TRANSIENT 1 TRANSFER 0 NOISE 0 

*WEDIT: .tran   1e-011   1e-008
TRANSIENT ANALYSIS
Time<s>        v(Clock,Gnd)<V>  v(time,Gnd)<V>  v(time_interval,Gnd)<V>
 0.000000e+000  0.0000e+000  1.3981e-004  3.2999e+000
 6.250000e-013  2.0625e+000  2.3045e-002  3.3069e+000
 8.218750e-013  2.7122e+000  3.0737e-002  3.3091e+000
 1.000000e-012  3.3000e+000  3.7564e-002  3.3112e+000
 1.208620e-012  3.3000e+000  3.4272e-002  3.3103e+000
 2.268757e-012  3.3000e+000  2.2261e-002  3.3067e+000
 3.487750e-012  3.3000e+000  1.1254e-002  3.3031e+000
 4.696423e-012  3.3000e+000  4.4359e-003  3.3007e+000
 6.148373e-012  3.3000e+000 -5.5384e-004  3.2997e+000
 8.450902e-012  3.3000e+000 -4.4834e-003  3.3029e+000
 1.284553e-011  3.3000e+000 -6.2587e-003  3.3159e+000
 1.876723e-011  3.3000e+000 -4.6173e-003  3.3236e+000
 2.517302e-011  3.3000e+000 -2.2686e-003  3.2888e+000
 3.052499e-011  3.3000e+000 -1.0420e-003  3.2252e+000
 3.427202e-011  3.3000e+000 -7.5048e-004  3.1679e+000
 3.743849e-011  3.3000e+000 -7.4058e-004  3.1153e+000
 4.088221e-011  3.3000e+000 -7.3719e-004  3.0547e+000
 4.458520e-011  3.3000e+000 -6.5681e-004  2.9800e+000
 4.874526e-011  3.3000e+000 -7.0492e-004  2.8649e+000
 5.307372e-011  3.3000e+000 -6.3844e-004  2.6904e+000
 5.566896e-011  3.3000e+000 -5.4127e-004  2.5554e+000
 5.817842e-011  3.3000e+000 -4.4775e-004  2.4020e+000
 6.166382e-011  3.3000e+000 -3.5459e-004  2.1559e+000
 6.713801e-011  3.3000e+000 -2.7169e-004  1.7299e+000
 7.332914e-011  3.3000e+000 -1.7967e-004  1.2776e+000
 7.795983e-011  3.3000e+000 -3.2743e-005  1.0032e+000
 8.149053e-011  3.3000e+000  9.5778e-005  8.2278e-001
 8.527654e-011  3.3000e+000  2.2234e-004  6.5118e-001
 9.076966e-011  3.3000e+000  4.0574e-004  4.5434e-001
 9.821078e-011  3.3000e+000  5.8589e-004  2.7579e-001
 1.087945e-010  3.3000e+000  5.9088e-004  1.2673e-001
 1.252700e-010  3.3000e+000  4.1132e-004  2.7929e-002
 1.452700e-010  3.3000e+000  2.3524e-004  3.3979e-003
 1.652700e-010  3.3000e+000  1.5634e-004  9.6572e-004
 1.852700e-010  3.3000e+000  1.4431e-004  5.7707e-004
 2.052700e-010  3.3000e+000  1.4353e-004  5.7645e-004
 2.252700e-010  3.3000e+000  1.4139e-004  5.5364e-004
 2.452700e-010  3.3000e+000  1.4207e-004  5.6163e-004
 2.652700e-010  3.3000e+000  1.4074e-004  5.5765e-004
 2.852700e-010  3.3000e+000  1.4152e-004  5.5985e-004
 3.052700e-010  3.3000e+000  1.4039e-004  5.5827e-004
 3.252700e-010  3.3000e+000  1.4123e-004  5.5962e-004
 3.452700e-010  3.3000e+000  1.4017e-004  5.5836e-004
 3.652700e-010  3.3000e+000  1.4106e-004  5.5959e-004
 3.852700e-010  3.3000e+000  1.4002e-004  5.5837e-004
 4.052700e-010  3.3000e+000  1.4094e-004  5.5958e-004
 4.252700e-010  3.3000e+000  1.3992e-004  5.5837e-004
 4.452700e-010  3.3000e+000  1.4085e-004  5.5958e-004
 4.652700e-010  3.3000e+000  1.3985e-004  5.5837e-004
 4.852700e-010  3.3000e+000  1.4079e-004  5.5958e-004
 5.052700e-010  3.3000e+000  1.3979e-004  5.5838e-004
 5.252700e-010  3.3000e+000  1.4074e-004  5.5957e-004
 5.452700e-010  3.3000e+000  1.3975e-004  5.5838e-004
 5.652700e-010  3.3000e+000  1.4070e-004  5.5957e-004
 5.852700e-010  3.3000e+000  1.3971e-004  5.5838e-004
 6.010000e-010  3.3000e+000  1.4067e-004  5.5955e-004
 6.020000e-010  0.0000e+000 -3.5310e-002 -9.9986e-003
 6.024999e-010  0.0000e+000 -2.7699e-002 -6.3040e-003
 6.046480e-010  0.0000e+000 -1.1102e-002  3.8596e-003
 6.070480e-010  0.0000e+000  1.2246e-003  8.6843e-003
 6.093198e-010  0.0000e+000  4.9506e-003  4.7128e-003
 6.114661e-010  0.0000e+000  6.0371e-003 -2.2403e-003
 6.132445e-010  0.0000e+000  6.0158e-003 -5.0465e-003
 6.152469e-010  0.0000e+000  5.4936e-003 -5.0905e-003
 6.178793e-010  0.0000e+000  4.4327e-003 -4.1154e-003
 6.208957e-010  0.0000e+000  3.1129e-003 -3.3944e-003
 6.231607e-010  0.0000e+000  2.2576e-003 -3.2233e-003
 6.251204e-010  0.0000e+000  1.6864e-003 -3.1112e-003
 6.269660e-010  0.0000e+000  1.2748e-003 -2.9862e-003
 6.291517e-010  0.0000e+000  9.0378e-004 -2.8476e-003
 6.323527e-010  0.0000e+000  5.1167e-004 -2.7195e-003
 6.380032e-010  0.0000e+000  1.3282e-004 -3.0335e-003
 6.491392e-010  0.0000e+000 -3.9998e-005 -3.2852e-003
 6.691392e-010  0.0000e+000  1.3481e-004 -1.0139e-003
 6.891392e-010  0.0000e+000  2.0213e-004  2.4335e-004
 7.091392e-010  0.0000e+000  1.8215e-004  5.1516e-004
 7.291392e-010  0.0000e+000  1.7255e-004  5.5417e-004
 7.491392e-010  0.0000e+000  1.6941e-004  5.6164e-004
 7.691392e-010  0.0000e+000  1.6338e-004  5.6106e-004
 7.891392e-010  0.0000e+000  1.6213e-004  5.6171e-004
 8.091392e-010  0.0000e+000  1.5810e-004  5.6062e-004
 8.291392e-010  0.0000e+000  1.5774e-004  5.6121e-004
 8.491392e-010  0.0000e+000  1.5467e-004  5.6020e-004
 8.691392e-010  0.0000e+000  1.5481e-004  5.6094e-004
 8.891392e-010  0.0000e+000  1.5227e-004  5.5990e-004
 9.091392e-010  0.0000e+000  1.5272e-004  5.6078e-004
 9.291392e-010  0.0000e+000  1.5050e-004  5.5969e-004
 9.491392e-010  0.0000e+000  1.5116e-004  5.6068e-004
 9.691392e-010  0.0000e+000  1.4914e-004  5.5953e-004
 9.891392e-010  0.0000e+000  1.4995e-004  5.6060e-004
 1.009139e-009  0.0000e+000  1.4807e-004  5.5941e-004
 1.029139e-009  0.0000e+000  1.4898e-004  5.6055e-004
 1.049139e-009  0.0000e+000  1.4720e-004  5.5931e-004
 1.069139e-009  0.0000e+000  1.4818e-004  5.6050e-004
 1.089139e-009  0.0000e+000  1.4648e-004  5.5924e-004
 1.109139e-009  0.0000e+000  1.4754e-004  5.6046e-004
 1.129139e-009  0.0000e+000  1.4590e-004  5.5918e-004
 1.149139e-009  0.0000e+000  1.4700e-004  5.6042e-004
 1.169139e-009  0.0000e+000  1.4541e-004  5.5914e-004
 1.189139e-009  0.0000e+000  1.4654e-004  5.6039e-004
 1.200000e-009  0.0000e+000  1.4507e-004  5.5912e-004
 1.202499e-009  3.3000e+000  2.3834e-002  1.1571e-002
 1.203749e-009  3.3000e+000  1.4507e-002  8.2454e-003
 1.205198e-009  3.3000e+000  5.9137e-003  4.7890e-003
 1.206702e-009  3.3000e+000  6.2737e-004  1.9584e-003
 1.208995e-009  3.3000e+000 -3.5161e-003 -1.7433e-003
 1.213367e-009  3.3000e+000 -5.8324e-003 -5.6075e-003
 1.219227e-009  3.3000e+000 -4.7637e-003 -5.9849e-003
 1.225554e-009  3.3000e+000 -2.8755e-003 -3.6063e-003
 1.230709e-009  3.3000e+000 -1.6438e-003 -1.2616e-003
 1.234363e-009  3.3000e+000 -1.0012e-003 -5.4028e-005
 1.237524e-009  3.3000e+000 -6.0761e-004  6.1177e-004
 1.241277e-009  3.3000e+000 -2.5068e-004  1.1698e-003
 1.246833e-009  3.3000e+000  1.3891e-004  1.6508e-003
 1.254428e-009  3.3000e+000  3.8419e-004  1.8448e-003
 1.265201e-009  3.3000e+000  4.0446e-004  1.7228e-003
 1.281931e-009  3.3000e+000  2.8418e-004  1.3040e-003
 1.301931e-009  3.3000e+000  1.7239e-004  8.8734e-004
 1.321931e-009  3.3000e+000  1.3548e-004  6.7990e-004
 1.341931e-009  3.3000e+000  1.4297e-004  6.3944e-004
 1.361931e-009  3.3000e+000  1.3877e-004  6.2031e-004
 1.381931e-009  3.3000e+000  1.4084e-004  6.1208e-004
 1.401931e-009  3.3000e+000  1.3932e-004  6.0411e-004
 1.421931e-009  3.3000e+000  1.4062e-004  5.9987e-004
 1.441931e-009  3.3000e+000  1.3938e-004  5.9468e-004
 1.461931e-009  3.3000e+000  1.4059e-004  5.9225e-004
 1.481931e-009  3.3000e+000  1.3939e-004  5.8845e-004
 1.501931e-009  3.3000e+000  1.4058e-004  5.8702e-004
 1.521931e-009  3.3000e+000  1.3940e-004  5.8403e-004
 1.541931e-009  3.3000e+000  1.4058e-004  5.8320e-004
 1.561931e-009  3.3000e+000  1.3940e-004  5.8073e-004
 1.581931e-009  3.3000e+000  1.4057e-004  5.8030e-004
 1.601931e-009  3.3000e+000  1.3940e-004  5.7818e-004
 1.621931e-009  3.3000e+000  1.4057e-004  5.7803e-004
 1.641931e-009  3.3000e+000  1.3940e-004  5.7615e-004
 1.661931e-009  3.3000e+000  1.4056e-004  5.7620e-004
 1.681931e-009  3.3000e+000  1.3940e-004  5.7449e-004
 1.701931e-009  3.3000e+000  1.4056e-004  5.7469e-004
 1.721931e-009  3.3000e+000  1.3940e-004  5.7314e-004
 1.741931e-009  3.3000e+000  1.4056e-004  5.7347e-004
 1.761931e-009  3.3000e+000  1.3940e-004  5.7202e-004
 1.781931e-009  3.3000e+000  1.4056e-004  5.7244e-004
 1.800999e-009  3.3000e+000  1.3940e-004  5.7109e-004
 1.803499e-009  0.0000e+000 -2.2434e-002 -2.6334e-003
 1.804749e-009  0.0000e+000 -1.2023e-002  3.2229e-003
 1.807216e-009  0.0000e+000  1.2773e-003  1.1032e-002
 1.809527e-009  0.0000e+000  5.0319e-003  1.3453e-002
 1.811914e-009  0.0000e+000  6.1435e-003  1.3547e-002
 1.814466e-009  0.0000e+000  5.8409e-003  1.2378e-002
 1.817300e-009  0.0000e+000  4.7369e-003  1.0278e-002
 1.820667e-009  0.0000e+000  3.2122e-003  7.3710e-003
 1.822956e-009  0.0000e+000  2.3216e-003  5.5419e-003
 1.824916e-009  0.0000e+000  1.7330e-003  4.2541e-003
 1.826747e-009  0.0000e+000  1.3171e-003  3.2910e-003
 1.828870e-009  0.0000e+000  9.4512e-004  2.3690e-003
 1.831924e-009  0.0000e+000  5.5884e-004  1.2945e-003
 1.837219e-009  0.0000e+000  1.7289e-004 -4.1314e-004
 1.847627e-009  0.0000e+000 -3.3111e-005 -2.3719e-003
 1.867397e-009  0.0000e+000  1.1855e-004 -1.0747e-003
 1.887397e-009  0.0000e+000  2.0444e-004  2.2109e-004
 1.907397e-009  0.0000e+000  1.8220e-004  5.0738e-004
 1.927397e-009  0.0000e+000  1.7400e-004  5.5571e-004
 1.947397e-009  0.0000e+000  1.6858e-004  5.5959e-004
 1.967397e-009  0.0000e+000  1.6476e-004  5.6290e-004
 1.987397e-009  0.0000e+000  1.6110e-004  5.6006e-004
 2.007397e-009  0.0000e+000  1.5937e-004  5.6220e-004
 2.027397e-009  0.0000e+000  1.5666e-004  5.5976e-004
 2.047397e-009  0.0000e+000  1.5586e-004  5.6161e-004
 2.067397e-009  0.0000e+000  1.5371e-004  5.5961e-004
 2.087397e-009  0.0000e+000  1.5342e-004  5.6120e-004
 2.107397e-009  0.0000e+000  1.5161e-004  5.5954e-004
 2.127397e-009  0.0000e+000  1.5162e-004  5.6091e-004
 2.147397e-009  0.0000e+000  1.5004e-004  5.5949e-004
 2.167397e-009  0.0000e+000  1.5025e-004  5.6070e-004
 2.187397e-009  0.0000e+000  1.4882e-004  5.5946e-004
 2.207397e-009  0.0000e+000  1.4917e-004  5.6055e-004
 2.227397e-009  0.0000e+000  1.4785e-004  5.5942e-004
 2.247397e-009  0.0000e+000  1.4830e-004  5.6043e-004
 2.267397e-009  0.0000e+000  1.4706e-004  5.5939e-004
 2.287397e-009  0.0000e+000  1.4758e-004  5.6034e-004
 2.307397e-009  0.0000e+000  1.4641e-004  5.5937e-004
 2.327397e-009  0.0000e+000  1.4699e-004  5.6027e-004
 2.347397e-009  0.0000e+000  1.4587e-004  5.5934e-004
 2.367397e-009  0.0000e+000  1.4650e-004  5.6022e-004
 2.387397e-009  0.0000e+000  1.4541e-004  5.5932e-004
 2.400000e-009  0.0000e+000  1.4614e-004  5.6019e-004
 2.400999e-009  3.3000e+000  3.6019e-002  1.5472e-002
 2.401314e-009  3.3000e+000  3.1775e-002  1.4525e-002
 2.402439e-009  3.3000e+000  2.0802e-002  1.1069e-002
 2.403711e-009  3.3000e+000  1.0760e-002  7.3245e-003
 2.404983e-009  3.3000e+000  4.3240e-003  4.3871e-003
 2.406609e-009  3.3000e+000 -6.8526e-004  1.4674e-003
 2.409324e-009  3.3000e+000 -4.6419e-003 -2.5946e-003
 2.414090e-009  3.3000e+000 -6.0015e-003 -6.0606e-003
 2.420169e-009  3.3000e+000 -4.4395e-003 -5.7730e-003
 2.426541e-009  3.3000e+000 -2.5597e-003 -3.1061e-003
 2.431279e-009  3.3000e+000 -1.4902e-003 -9.9868e-004
 2.434656e-009  3.3000e+000 -9.2756e-004  4.8143e-005
 2.437738e-009  3.3000e+000 -5.6283e-004  6.6944e-004
 2.441531e-009  3.3000e+000 -2.1127e-004  1.2193e-003
 2.447131e-009  3.3000e+000  1.6456e-004  1.6758e-003
 2.454800e-009  3.3000e+000  3.9351e-004  1.8507e-003
 2.465706e-009  3.3000e+000  4.0121e-004  1.7103e-003
 2.482721e-009  3.3000e+000  2.7861e-004  1.2838e-003
 2.502721e-009  3.3000e+000  1.6853e-004  8.7311e-004
 2.522721e-009  3.3000e+000  1.3599e-004  6.7655e-004
 2.542721e-009  3.3000e+000  1.4250e-004  6.3826e-004
 2.562721e-009  3.3000e+000  1.3911e-004  6.2017e-004
 2.582721e-009  3.3000e+000  1.4042e-004  6.1141e-004
 2.602721e-009  3.3000e+000  1.3971e-004  6.0426e-004
 2.622721e-009  3.3000e+000  1.4018e-004  5.9929e-004
 2.642721e-009  3.3000e+000  1.3979e-004  5.9493e-004
 2.662721e-009  3.3000e+000  1.4015e-004  5.9174e-004
 2.682721e-009  3.3000e+000  1.3980e-004  5.8874e-004
 2.702721e-009  3.3000e+000  1.4014e-004  5.8654e-004
 2.722721e-009  3.3000e+000  1.3981e-004  5.8435e-004
 2.742721e-009  3.3000e+000  1.4013e-004  5.8275e-004
 2.762721e-009  3.3000e+000  1.3981e-004  5.8106e-004
 2.782721e-009  3.3000e+000  1.4013e-004  5.7987e-004
 2.802721e-009  3.3000e+000  1.3981e-004  5.7852e-004
 2.822721e-009  3.3000e+000  1.4013e-004  5.7760e-004
 2.842721e-009  3.3000e+000  1.3981e-004  5.7650e-004
 2.862721e-009  3.3000e+000  1.4013e-004  5.7578e-004
 2.882721e-009  3.3000e+000  1.3982e-004  5.7485e-004
 2.902721e-009  3.3000e+000  1.4013e-004  5.7428e-004
 2.922721e-009  3.3000e+000  1.3982e-004  5.7351e-004
 2.942721e-009  3.3000e+000  1.4012e-004  5.7307e-004
 2.962721e-009  3.3000e+000  1.3982e-004  5.7239e-004
 2.982721e-009  3.3000e+000  1.4012e-004  5.7204e-004
 3.000999e-009  3.3000e+000  1.3982e-004  5.7147e-004
 3.003499e-009  0.0000e+000 -2.2434e-002 -2.6334e-003
 3.004749e-009  0.0000e+000 -1.2023e-002  3.2229e-003
 3.007216e-009  0.0000e+000  1.2773e-003  1.1032e-002
 3.009527e-009  0.0000e+000  5.0319e-003  1.3453e-002
 3.011914e-009  0.0000e+000  6.1436e-003  1.3547e-002
 3.014466e-009  0.0000e+000  5.8410e-003  1.2378e-002
 3.017300e-009  0.0000e+000  4.7370e-003  1.0278e-002
 3.020667e-009  0.0000e+000  3.2122e-003  7.3710e-003
 3.022956e-009  0.0000e+000  2.3216e-003  5.5419e-003
 3.024916e-009  0.0000e+000  1.7330e-003  4.2541e-003
 3.026747e-009  0.0000e+000  1.3171e-003  3.2910e-003
 3.028870e-009  0.0000e+000  9.4511e-004  2.3690e-003
 3.031924e-009  0.0000e+000  5.5881e-004  1.2945e-003
 3.037219e-009  0.0000e+000  1.7284e-004 -4.1314e-004
 3.047627e-009  0.0000e+000 -3.3190e-005 -2.3719e-003
 3.067397e-009  0.0000e+000  1.1849e-004 -1.0747e-003
 3.087397e-009  0.0000e+000  2.0442e-004  2.2109e-004
 3.107397e-009  0.0000e+000  1.8219e-004  5.0738e-004
 3.127397e-009  0.0000e+000  1.7399e-004  5.5571e-004
 3.147397e-009  0.0000e+000  1.6857e-004  5.5959e-004
 3.167397e-009  0.0000e+000  1.6475e-004  5.6290e-004
 3.187397e-009  0.0000e+000  1.6109e-004  5.6006e-004
 3.207397e-009  0.0000e+000  1.5936e-004  5.6220e-004
 3.227397e-009  0.0000e+000  1.5665e-004  5.5976e-004
 3.247397e-009  0.0000e+000  1.5585e-004  5.6161e-004
 3.267397e-009  0.0000e+000  1.5371e-004  5.5961e-004
 3.287397e-009  0.0000e+000  1.5341e-004  5.6120e-004
 3.307397e-009  0.0000e+000  1.5161e-004  5.5954e-004
 3.327397e-009  0.0000e+000  1.5161e-004  5.6091e-004
 3.347397e-009  0.0000e+000  1.5003e-004  5.5949e-004
 3.367397e-009  0.0000e+000  1.5024e-004  5.6070e-004
 3.387397e-009  0.0000e+000  1.4881e-004  5.5946e-004
 3.407397e-009  0.0000e+000  1.4916e-004  5.6055e-004
 3.427397e-009  0.0000e+000  1.4784e-004  5.5942e-004
 3.447397e-009  0.0000e+000  1.4829e-004  5.6043e-004
 3.467397e-009  0.0000e+000  1.4705e-004  5.5939e-004
 3.487397e-009  0.0000e+000  1.4757e-004  5.6034e-004
 3.507397e-009  0.0000e+000  1.4640e-004  5.5937e-004
 3.527397e-009  0.0000e+000  1.4699e-004  5.6027e-004
 3.547397e-009  0.0000e+000  1.4586e-004  5.5934e-004
 3.567397e-009  0.0000e+000  1.4649e-004  5.6022e-004
 3.587397e-009  0.0000e+000  1.4540e-004  5.5932e-004
 3.599999e-009  0.0000e+000  1.4613e-004  5.6019e-004
 3.600999e-009  3.3000e+000  3.6019e-002  1.5472e-002
 3.6013150e-009  3.3000e+000  3.1775e-002  1.4525e-002
 3.602439e-009  3.3000e+000  2.0802e-002  1.1069e-002
 3.603711e-009  3.3000e+000  1.0760e-002  7.3245e-003
 3.604983e-009  3.3000e+000  4.3240e-003  4.3871e-003
 3.606609e-009  3.3000e+000 -6.8527e-004  1.4674e-003
 3.609324e-009  3.3000e+000 -4.6419e-003 -2.5946e-003
 3.614090e-009  3.3000e+000 -6.0015e-003 -6.0606e-003
 3.620169e-009  3.3000e+000 -4.4395e-003 -5.7730e-003
 3.626541e-009  3.3000e+000 -2.5597e-003 -3.1061e-003
 3.631279e-009  3.3000e+000 -1.4902e-003 -9.9868e-004
 3.634656e-009  3.3000e+000 -9.2757e-004  4.8143e-005
 3.637738e-009  3.3000e+000 -5.6284e-004  6.6944e-004
 3.641531e-009  3.3000e+000 -2.1128e-004  1.2193e-003
 3.647131e-009  3.3000e+000  1.6456e-004  1.6758e-003
 3.654800e-009  3.3000e+000  3.9351e-004  1.8507e-003
 3.665706e-009  3.3000e+000  4.0122e-004  1.7103e-003
 3.682721e-009  3.3000e+000  2.7861e-004  1.2838e-003
 3.702721e-009  3.3000e+000  1.6853e-004  8.7311e-004
 3.722721e-009  3.3000e+000  1.3599e-004  6.7655e-004
 3.742721e-009  3.3000e+000  1.4250e-004  6.3826e-004
 3.762721e-009  3.3000e+000  1.3910e-004  6.2017e-004
 3.782721e-009  3.3000e+000  1.4042e-004  6.1141e-004
 3.802721e-009  3.3000e+000  1.3970e-004  6.0426e-004
 3.822721e-009  3.3000e+000  1.4018e-004  5.9929e-004
 3.842721e-009  3.3000e+000  1.3979e-004  5.9493e-004
 3.862721e-009  3.3000e+000  1.4014e-004  5.9174e-004
 3.882721e-009  3.3000e+000  1.3980e-004  5.8874e-004
 3.902721e-009  3.3000e+000  1.4013e-004  5.8654e-004
 3.922721e-009  3.3000e+000  1.3981e-004  5.8435e-004
 3.942721e-009  3.3000e+000  1.4013e-004  5.8275e-004
 3.962721e-009  3.3000e+000  1.3981e-004  5.8106e-004
 3.982721e-009  3.3000e+000  1.4013e-004  5.7987e-004
 4.002721e-009  3.3000e+000  1.3981e-004  5.7852e-004
 4.022721e-009  3.3000e+000  1.4012e-004  5.7760e-004
 4.042721e-009  3.3000e+000  1.3981e-004  5.7650e-004
 4.062721e-009  3.3000e+000  1.4012e-004  5.7578e-004
 4.082721e-009  3.3000e+000  1.3981e-004  5.7485e-004
 4.102721e-009  3.3000e+000  1.4012e-004  5.7428e-004
 4.122721e-009  3.3000e+000  1.3981e-004  5.7351e-004
 4.142721e-009  3.3000e+000  1.4012e-004  5.7307e-004
 4.162721e-009  3.3000e+000  1.3981e-004  5.7239e-004
 4.182721e-009  3.3000e+000  1.4012e-004  5.7204e-004
 4.201000e-009  3.3000e+000  1.3981e-004  5.7147e-004
 4.203500e-009  0.0000e+000 -2.2434e-002 -2.6334e-003
 4.204750e-009  0.0000e+000 -1.2023e-002  3.2229e-003
 4.207216e-009  0.0000e+000  1.2773e-003  1.1032e-002
 4.209527e-009  0.0000e+000  5.0319e-003  1.3453e-002
 4.211914e-009  0.0000e+000  6.1436e-003  1.3547e-002
