* T-Spice 13.00 Simulation	Sun May 05 15:00:56 2019	C:\Users\makif\Google Drive\TEZ ÇALIÞMAM\çizim\Counter_TDC\Counter_TDC\counter_TDC3.sp
* Command line: tspice -o "C:\Users\makif\Google Drive\TEZ ÇALIÞMAM\çizim\Counter_TDC\Counter_TDC\counter_TDC3.out" "C:\Users\makif\Google Drive\TEZ ÇALIÞMAM\çizim\Counter_TDC\Counter_TDC\counter_TDC3.sp" 
* T-Spice Win32 13.00.20080321.01:01:33

*SEDIT: Alter blocks = 0

* Accuracy and Convergence options:
* numndset|dchold = 100
* 
* Timestep and Integration options:
*  relq|relchgtol = 0.0005
* 
* Model Evaluation options:
*            dcap = 2                    defnrb = 0 [sq]               defnrd = 0 [sq]
*          defnrs = 0 [sq]                 tnom = 25 [deg C]
* 
* General options:
*            temp = 25 [deg C]          threads = 8
* 
* Output options:
*           acout = 1                    ingold = 0
* 


*  Device and node counts:
*             MOSFETs - 14                MOSFET geometries - 8       
*                BJTs - 0                             JFETs - 0       
*             MESFETs - 0                            Diodes - 0       
*          Capacitors - 0                         Resistors - 0       
*           Inductors - 0                  Mutual inductors - 0       
*  Transmission lines - 0        Coupled transmission lines - 0       
*     Voltage sources - 4                   Current sources - 0       
*                VCVS - 0                              VCCS - 0       
*                CCVS - 0                              CCCS - 0       
*    V-control switch - 0                  I-control switch - 0       
*       Macro devices - 0        External C model instances - 0       
*         HDL devices - 0       
*         Subcircuits - 0              Subcircuit instances - 4       
*   Independent nodes - 63                   Boundary nodes - 5       
*         Total nodes - 68      


*SEDIT: Alter=0
*SEDIT: Analysis types DCOP 0 ACMODEL 0 AC 0 TRANSIENT 1 TRANSFER 0 NOISE 0 

*WEDIT: .tran   1e-011   1e-008
TRANSIENT ANALYSIS
Time<s>        v(Stop,Gnd)<V>  v(Start,Gnd)<V>  v(Out,Gnd)<V>  v(Clock,Gnd)<V>  v(Time,Gnd)<V>
 0.000000e+000  1.0000e+000  0.0000e+000  1.5338e-004  0.0000e+000  1.1951e-004
 6.250000e-013  1.0000e+000  0.0000e+000  1.9128e-004  6.2500e-001  1.4363e-004
 1.000000e-012  1.0000e+000  0.0000e+000  1.6431e-004  1.0000e+000  1.3608e-004
 1.449987e-012  1.0000e+000  0.0000e+000  1.1764e-004  1.0000e+000  1.1876e-004
 5.949860e-012  1.0000e+000  0.0000e+000 -6.9752e-005  1.0000e+000  1.0265e-004
 2.594986e-011  1.0000e+000  0.0000e+000  8.1805e-006  1.0000e+000  1.2131e-004
 4.594986e-011  1.0000e+000  0.0000e+000  8.0121e-004  1.0000e+000  1.3083e-004
 6.594986e-011  1.0000e+000  0.0000e+000  1.0849e-003  1.0000e+000  1.2676e-004
 8.594986e-011  1.0000e+000  0.0000e+000  9.8271e-004  1.0000e+000  1.2839e-004
 1.059498e-010  1.0000e+000  0.0000e+000  7.8405e-004  1.0000e+000  1.2545e-004
 1.259498e-010  1.0000e+000  0.0000e+000  6.0767e-004  1.0000e+000  1.2531e-004
 1.459498e-010  1.0000e+000  0.0000e+000  4.7656e-004  1.0000e+000  1.2366e-004
 1.510000e-010  1.0000e+000  0.0000e+000  4.5056e-004  1.0000e+000  1.2351e-004
 1.520000e-010  1.0000e+000  0.0000e+000  3.8580e-004  0.0000e+000  1.0261e-004
 1.524500e-010  1.0000e+000  0.0000e+000  4.0477e-004  0.0000e+000  1.1279e-004
 1.569500e-010  1.0000e+000  0.0000e+000  4.1673e-004  0.0000e+000  1.2366e-004
 1.769500e-010  1.0000e+000  0.0000e+000  3.9800e-004  0.0000e+000  1.2795e-004
 1.969500e-010  1.0000e+000  0.0000e+000  3.0905e-004  0.0000e+000  1.1967e-004
 2.169500e-010  1.0000e+000  0.0000e+000  2.4116e-004  0.0000e+000  1.2258e-004
 2.369500e-010  1.0000e+000  0.0000e+000  2.0034e-004  0.0000e+000  1.1913e-004
 2.569500e-010  1.0000e+000  0.0000e+000  1.7780e-004  0.0000e+000  1.2079e-004
 2.769499e-010  1.0000e+000  0.0000e+000  1.6588e-004  0.0000e+000  1.1928e-004
 2.969499e-010  1.0000e+000  0.0000e+000  1.5972e-004  0.0000e+000  1.2014e-004
 3.000000e-010  1.0000e+000  0.0000e+000  1.5911e-004  0.0000e+000  1.1978e-004
 3.025000e-010  1.0000e+000  0.0000e+000  2.1239e-004  1.0000e+000  1.3831e-004
 3.036250e-010  1.0000e+000  0.0000e+000  1.9999e-004  1.0000e+000  1.2827e-004
 3.148749e-010  1.0000e+000  0.0000e+000  1.5743e-004  1.0000e+000  1.1279e-004
 3.348749e-010  1.0000e+000  0.0000e+000  1.3312e-004  1.0000e+000  1.2269e-004
 3.548749e-010  1.0000e+000  0.0000e+000  1.3709e-004  1.0000e+000  1.1724e-004
 3.748749e-010  1.0000e+000  0.0000e+000  1.4516e-004  1.0000e+000  1.2141e-004
 3.948749e-010  1.0000e+000  0.0000e+000  1.5272e-004  1.0000e+000  1.1883e-004
 4.148749e-010  1.0000e+000  0.0000e+000  1.5740e-004  1.0000e+000  1.2073e-004
 4.348749e-010  1.0000e+000  0.0000e+000  1.6085e-004  1.0000e+000  1.1953e-004
 4.510000e-010  1.0000e+000  0.0000e+000  1.6198e-004  1.0000e+000  1.2033e-004
 4.520000e-010  1.0000e+000  0.0000e+000  9.3620e-005  0.0000e+000  9.5631e-005
 4.524500e-010  1.0000e+000  0.0000e+000  1.1299e-004  0.0000e+000  1.0624e-004
 4.569500e-010  1.0000e+000  0.0000e+000  1.3338e-004  0.0000e+000  1.1745e-004
 4.769500e-010  1.0000e+000  0.0000e+000  1.8400e-004  0.0000e+000  1.2427e-004
 4.969500e-010  1.0000e+000  0.0000e+000  1.8194e-004  0.0000e+000  1.1808e-004
 5.169500e-010  1.0000e+000  0.0000e+000  1.7200e-004  0.0000e+000  1.2160e-004
 5.369500e-010  1.0000e+000  0.0000e+000  1.6411e-004  0.0000e+000  1.1879e-004
 5.569500e-010  1.0000e+000  0.0000e+000  1.5921e-004  0.0000e+000  1.2054e-004
 5.769500e-010  1.0000e+000  0.0000e+000  1.5644e-004  0.0000e+000  1.1924e-004
 5.969500e-010  1.0000e+000  0.0000e+000  1.5495e-004  0.0000e+000  1.2009e-004
 6.000000e-010  1.0000e+000  0.0000e+000  1.5481e-004  0.0000e+000  1.1977e-004
 6.010000e-010  1.0000e+000  0.0000e+000  2.2702e-004  1.0000e+000  1.5312e-004
 6.014500e-010  1.0000e+000  0.0000e+000  2.0776e-004  1.0000e+000  1.3895e-004
 6.059500e-010  1.0000e+000  0.0000e+000  1.9098e-004  1.0000e+000  1.2437e-004
 6.259500e-010  1.0000e+000  0.0000e+000  1.4312e-004  1.0000e+000  1.1462e-004
 6.459500e-010  1.0000e+000  0.0000e+000  1.3556e-004  1.0000e+000  1.2206e-004
 6.659500e-010  1.0000e+000  0.0000e+000  1.3892e-004  1.0000e+000  1.1742e-004
 6.859500e-010  1.0000e+000  0.0000e+000  1.4414e-004  1.0000e+000  1.2113e-004
 7.059500e-010  1.0000e+000  0.0000e+000  1.4861e-004  1.0000e+000  1.1874e-004
 7.259500e-010  1.0000e+000  0.0000e+000  1.5195e-004  1.0000e+000  1.2051e-004
 7.459500e-010  1.0000e+000  0.0000e+000  1.5428e-004  1.0000e+000  1.1937e-004
 7.510000e-010  1.0000e+000  0.0000e+000  1.5473e-004  1.0000e+000  1.1994e-004
 7.520000e-010  1.0000e+000  0.0000e+000  8.5457e-005  0.0000e+000  9.5008e-005
 7.524500e-010  1.0000e+000  0.0000e+000  1.0466e-004  0.0000e+000  1.0567e-004
 7.569500e-010  1.0000e+000  0.0000e+000  1.2385e-004  0.0000e+000  1.1698e-004
 7.769500e-010  1.0000e+000  0.0000e+000  1.7347e-004  0.0000e+000  1.2406e-004
 7.969500e-010  1.0000e+000  0.0000e+000  1.7485e-004  0.0000e+000  1.1797e-004
 8.169500e-010  1.0000e+000  0.0000e+000  1.6787e-004  0.0000e+000  1.2157e-004
 8.369500e-010  1.0000e+000  0.0000e+000  1.6185e-004  0.0000e+000  1.1878e-004
 8.569500e-010  1.0000e+000  0.0000e+000  1.5802e-004  0.0000e+000  1.2055e-004
 8.769500e-010  1.0000e+000  0.0000e+000  1.5583e-004  0.0000e+000  1.1925e-004
 8.969500e-010  1.0000e+000  0.0000e+000  1.5464e-004  0.0000e+000  1.2011e-004
 9.000000e-010  1.0000e+000  0.0000e+000  1.5452e-004  0.0000e+000  1.1978e-004
 9.010000e-010  1.0000e+000  0.0000e+000  2.2699e-004  1.0000e+000  1.5322e-004
 9.014500e-010  1.0000e+000  0.0000e+000  2.0782e-004  1.0000e+000  1.3906e-004
 9.059500e-010  1.0000e+000  0.0000e+000  1.9169e-004  1.0000e+000  1.2450e-004
 9.259500e-010  1.0000e+000  0.0000e+000  1.4494e-004  1.0000e+000  1.1470e-004
 9.459500e-010  1.0000e+000  0.0000e+000  1.3648e-004  1.0000e+000  1.2206e-004
 9.659500e-010  1.0000e+000  0.0000e+000  1.3872e-004  1.0000e+000  1.1740e-004
 9.859500e-010  1.0000e+000  0.0000e+000  1.4304e-004  1.0000e+000  1.2092e-004
 1.000000e-009  1.0000e+000  0.0000e+000  1.4592e-004  1.0000e+000  1.1892e-004
 1.001000e-009  0.0000e+000  0.0000e+000  1.4434e-004  1.0000e+000 -2.3120e-002
 1.001450e-009  0.0000e+000  0.0000e+000  1.4534e-004  1.0000e+000 -1.8522e-002
 1.005950e-009  0.0000e+000  0.0000e+000  1.4678e-004  1.0000e+000 -7.5249e-003
 1.025950e-009  0.0000e+000  0.0000e+000  1.5042e-004  1.0000e+000  4.1857e-003
 1.045950e-009  0.0000e+000  0.0000e+000  1.5205e-004  1.0000e+000 -1.6095e-003
 1.051000e-009  0.0000e+000  0.0000e+000  1.5262e-004  1.0000e+000  7.2839e-005
 1.052000e-009  0.0000e+000  0.0000e+000  8.3051e-005  0.0000e+000  8.9774e-005
 1.052450e-009  0.0000e+000  0.0000e+000  1.0218e-004  0.0000e+000  1.2090e-004
 1.056949e-009  0.0000e+000  0.0000e+000  1.2086e-004  0.0000e+000  2.2644e-004
 1.076949e-009  0.0000e+000  0.0000e+000  1.6986e-004  0.0000e+000  3.4675e-004
 1.096949e-009  0.0000e+000  0.0000e+000  1.7236e-004  0.0000e+000  2.8751e-004
 1.116949e-009  0.0000e+000  0.0000e+000  1.6641e-004  0.0000e+000  3.1554e-004
 1.136949e-009  0.0000e+000  0.0000e+000  1.6105e-004  0.0000e+000  3.0135e-004
 1.156949e-009  0.0000e+000  0.0000e+000  1.5759e-004  0.0000e+000  3.0809e-004
 1.176949e-009  0.0000e+000  0.0000e+000  1.5561e-004  0.0000e+000  3.0464e-004
 1.196949e-009  0.0000e+000  0.0000e+000  1.5453e-004  0.0000e+000  3.0629e-004
 1.200000e-009  0.0000e+000  0.0000e+000  1.5442e-004  0.0000e+000  3.0592e-004
 1.201000e-009  0.0000e+000  0.0000e+000  2.2700e-004  1.0000e+000  3.4892e-004
 1.201450e-009  0.0000e+000  0.0000e+000  2.0787e-004  1.0000e+000  3.3486e-004
 1.205949e-009  0.0000e+000  0.0000e+000  1.9201e-004  1.0000e+000  3.1702e-004
 1.225949e-009  0.0000e+000  0.0000e+000  1.4576e-004  1.0000e+000  2.9717e-004
 1.245949e-009  0.0000e+000  0.0000e+000  1.3693e-004  1.0000e+000  3.0789e-004
 1.265949e-009  0.0000e+000  0.0000e+000  1.3870e-004  1.0000e+000  3.0330e-004
 1.285949e-009  0.0000e+000  0.0000e+000  1.4263e-004  1.0000e+000  3.0604e-004
 1.305949e-009  0.0000e+000  0.0000e+000  1.4631e-004  1.0000e+000  3.0511e-004
 1.325949e-009  0.0000e+000  0.0000e+000  1.4919e-004  1.0000e+000  3.0588e-004
 1.345949e-009  0.0000e+000  0.0000e+000  1.5129e-004  1.0000e+000  3.0564e-004
 1.350999e-009  0.0000e+000  0.0000e+000  1.5172e-004  1.0000e+000  3.0574e-004
 1.351999e-009  0.0000e+000  0.0000e+000  8.1998e-005  1.0347e-013  2.7355e-004
 1.352450e-009  0.0000e+000  0.0000e+000  1.0109e-004  0.0000e+000  2.8417e-004
 1.356950e-009  0.0000e+000  0.0000e+000  1.1949e-004  0.0000e+000  2.9825e-004
 1.376950e-009  0.0000e+000  0.0000e+000  1.6812e-004  0.0000e+000  3.1311e-004
 1.396950e-009  0.0000e+000  0.0000e+000  1.7116e-004  0.0000e+000  3.0395e-004
 1.416950e-009  0.0000e+000  0.0000e+000  1.6570e-004  0.0000e+000  3.0753e-004
 1.436950e-009  0.0000e+000  0.0000e+000  1.6066e-004  0.0000e+000  3.0530e-004
 1.456950e-009  0.0000e+000  0.0000e+000  1.5739e-004  0.0000e+000  3.0616e-004
 1.476950e-009  0.0000e+000  0.0000e+000  1.5550e-004  0.0000e+000  3.0562e-004
 1.496950e-009  0.0000e+000  0.0000e+000  1.5448e-004  0.0000e+000  3.0583e-004
 1.499999e-009  0.0000e+000  0.0000e+000  1.5437e-004  0.0000e+000  3.0577e-004
 1.501000e-009  0.0000e+000  0.0000e+000  2.2701e-004  1.0000e+000  3.4883e-004
 1.501450e-009  0.0000e+000  0.0000e+000  2.0790e-004  1.0000e+000  3.3479e-004
 1.505949e-009  0.0000e+000  0.0000e+000  1.9220e-004  1.0000e+000  3.1703e-004
 1.525949e-009  0.0000e+000  0.0000e+000  1.4622e-004  1.0000e+000  2.9725e-004
 1.545949e-009  0.0000e+000  0.0000e+000  1.3720e-004  1.0000e+000  3.0790e-004
 1.565949e-009  0.0000e+000  0.0000e+000  1.3870e-004  1.0000e+000  3.0331e-004
 1.585949e-009  0.0000e+000  0.0000e+000  1.4242e-004  1.0000e+000  3.0604e-004
 1.605949e-009  0.0000e+000  0.0000e+000  1.4593e-004  1.0000e+000  3.0501e-004
 1.625949e-009  0.0000e+000  0.0000e+000  1.4872e-004  1.0000e+000  3.0589e-004
 1.645949e-009  0.0000e+000  0.0000e+000  1.5077e-004  1.0000e+000  3.0560e-004
 1.650999e-009  0.0000e+000  0.0000e+000  1.5119e-004  1.0000e+000  3.0572e-004
 1.652000e-009  0.0000e+000  0.0000e+000  8.1374e-005  0.0000e+000  2.7348e-004
 1.652450e-009  0.0000e+000  0.0000e+000  1.0044e-004  0.0000e+000  2.8410e-004
 1.656949e-009  0.0000e+000  0.0000e+000  1.1867e-004  0.0000e+000  2.9817e-004
 1.676949e-009  0.0000e+000  0.0000e+000  1.6706e-004  0.0000e+000  3.1306e-004
 1.696949e-009  0.0000e+000  0.0000e+000  1.7042e-004  0.0000e+000  3.0395e-004
 1.716949e-009  0.0000e+000  0.0000e+000  1.6526e-004  0.0000e+000  3.0753e-004
 1.736949e-009  0.0000e+000  0.0000e+000  1.6042e-004  0.0000e+000  3.0531e-004
 1.756949e-009  0.0000e+000  0.0000e+000  1.5726e-004  0.0000e+000  3.0617e-004
 1.776949e-009  0.0000e+000  0.0000e+000  1.5544e-004  0.0000e+000  3.0563e-004
 1.796949e-009  0.0000e+000  0.0000e+000  1.5444e-004  0.0000e+000  3.0584e-004
 1.799999e-009  0.0000e+000  0.0000e+000  1.5434e-004  0.0000e+000  3.0579e-004
 1.801000e-009  0.0000e+000  0.0000e+000  2.2702e-004  1.0000e+000  3.4886e-004
 1.801449e-009  0.0000e+000  0.0000e+000  2.0793e-004  1.0000e+000  3.3483e-004
 1.805949e-009  0.0000e+000  0.0000e+000  1.9231e-004  1.0000e+000  3.1708e-004
 1.825949e-009  0.0000e+000  0.0000e+000  1.4651e-004  1.0000e+000  2.9729e-004
 1.845949e-009  0.0000e+000  0.0000e+000  1.3737e-004  1.0000e+000  3.0792e-004
 1.865949e-009  0.0000e+000  0.0000e+000  1.3871e-004  1.0000e+000  3.0332e-004
 1.885949e-009  0.0000e+000  0.0000e+000  1.4229e-004  1.0000e+000  3.0604e-004
 1.905949e-009  0.0000e+000  0.0000e+000  1.4570e-004  1.0000e+000  3.0494e-004
 1.925949e-009  0.0000e+000  0.0000e+000  1.4843e-004  1.0000e+000  3.0586e-004
 1.945949e-009  0.0000e+000  0.0000e+000  1.5044e-004  1.0000e+000  3.0560e-004
 1.950999e-009  0.0000e+000  0.0000e+000  1.5085e-004  1.0000e+000  3.0571e-004
 1.951999e-009  0.0000e+000  0.0000e+000  8.0976e-005  1.0347e-013  2.7345e-004
 1.952449e-009  0.0000e+000  0.0000e+000  1.0003e-004  0.0000e+000  2.8406e-004
 1.956949e-009  0.0000e+000  0.0000e+000  1.1814e-004  0.0000e+000  2.9813e-004
 1.976949e-009  0.0000e+000  0.0000e+000  1.6637e-004  0.0000e+000  3.1303e-004
 1.996949e-009  0.0000e+000  0.0000e+000  1.6994e-004  0.0000e+000  3.0395e-004
 2.016949e-009  0.0000e+000  0.0000e+000  1.6497e-004  0.0000e+000  3.0753e-004
 2.036949e-009  0.0000e+000  0.0000e+000  1.6026e-004  0.0000e+000  3.0532e-004
 2.056949e-009  0.0000e+000  0.0000e+000  1.5718e-004  0.0000e+000  3.0618e-004
 2.076949e-009  0.0000e+000  0.0000e+000  1.5539e-004  0.0000e+000  3.0564e-004
 2.096949e-009  0.0000e+000  0.0000e+000  1.5442e-004  0.0000e+000  3.0585e-004
 2.099999e-009  0.0000e+000  0.0000e+000  1.5432e-004  0.0000e+000  3.0580e-004
 2.102499e-009  0.0000e+000  0.0000e+000  2.1108e-004  1.0000e+000  3.3399e-004
 2.103624e-009  0.0000e+000  0.0000e+000  1.9999e-004  1.0000e+000  3.2350e-004
 2.114874e-009  0.0000e+000  0.0000e+000  1.6526e-004  1.0000e+000  2.9874e-004
 2.134874e-009  0.0000e+000  0.0000e+000  1.4040e-004  1.0000e+000  3.0677e-004
 2.154874e-009  0.0000e+000  0.0000e+000  1.3772e-004  1.0000e+000  3.0361e-004
 2.174874e-009  0.0000e+000  0.0000e+000  1.4009e-004  1.0000e+000  3.0566e-004
 2.194874e-009  0.0000e+000  0.0000e+000  1.4396e-004  1.0000e+000  3.0507e-004
 2.214874e-009  0.0000e+000  0.0000e+000  1.4667e-004  1.0000e+000  3.0554e-004
 2.234874e-009  0.0000e+000  0.0000e+000  1.4936e-004  1.0000e+000  3.0567e-004
 2.250999e-009  0.0000e+000  0.0000e+000  1.5045e-004  1.0000e+000  3.0569e-004
 2.253499e-009  0.0000e+000  0.0000e+000  9.7445e-005  0.0000e+000  2.8498e-004
 2.254624e-009  0.0000e+000  0.0000e+000  1.0917e-004  0.0000e+000  2.9311e-004
 2.265874e-009  0.0000e+000  0.0000e+000  1.4763e-004  0.0000e+000  3.1232e-004
 2.285874e-009  0.0000e+000  0.0000e+000  1.6946e-004  0.0000e+000  3.0511e-004
 2.305874e-009  0.0000e+000  0.0000e+000  1.6734e-004  0.0000e+000  3.0736e-004
 2.325874e-009  0.0000e+000  0.0000e+000  1.6263e-004  0.0000e+000  3.0563e-004
 2.345874e-009  0.0000e+000  0.0000e+000  1.5843e-004  0.0000e+000  3.0613e-004
 2.365874e-009  0.0000e+000  0.0000e+000  1.5636e-004  0.0000e+000  3.0575e-004
 2.385874e-009  0.0000e+000  0.0000e+000  1.5470e-004  0.0000e+000  3.0583e-004
 2.400000e-009  0.0000e+000  0.0000e+000  1.5447e-004  0.0000e+000  3.0579e-004
 2.400999e-009  0.0000e+000  0.0000e+000  2.2703e-004  1.0000e+000  3.4887e-004
 2.401449e-009  0.0000e+000  0.0000e+000  2.0795e-004  1.0000e+000  3.3484e-004
 2.405949e-009  0.0000e+000  0.0000e+000  1.9245e-004  1.0000e+000  3.1712e-004
 2.425949e-009  0.0000e+000  0.0000e+000  1.4686e-004  1.0000e+000  2.9735e-004
 2.445949e-009  0.0000e+000  0.0000e+000  1.3758e-004  1.0000e+000  3.0794e-004
 2.465949e-009  0.0000e+000  0.0000e+000  1.3873e-004  1.0000e+000  3.0334e-004
 2.485949e-009  0.0000e+000  0.0000e+000  1.4215e-004  1.0000e+000  3.0604e-004
 2.505949e-009  0.0000e+000  0.0000e+000  1.4544e-004  1.0000e+000  3.0503e-004
 2.525949e-009  0.0000e+000  0.0000e+000  1.4807e-004  1.0000e+000  3.0574e-004
 2.545949e-009  0.0000e+000  0.0000e+000  1.5004e-004  1.0000e+000  3.0564e-004
 2.551000e-009  0.0000e+000  0.0000e+000  1.5044e-004  1.0000e+000  3.0571e-004
 2.551999e-009  0.0000e+000  0.0000e+000  8.0490e-005  1.0347e-013  2.7341e-004
 2.552449e-009  0.0000e+000  0.0000e+000  9.9522e-005  0.0000e+000  2.8402e-004
 2.556949e-009  0.0000e+000  0.0000e+000  1.1749e-004  0.0000e+000  2.9808e-004
 2.576949e-009  0.0000e+000  0.0000e+000  1.6550e-004  0.0000e+000  3.1300e-004
 2.596949e-009  0.0000e+000  0.0000e+000  1.6933e-004  0.0000e+000  3.0395e-004
 2.616949e-009  0.0000e+000  0.0000e+000  1.6461e-004  0.0000e+000  3.0754e-004
 2.636949e-009  0.0000e+000  0.0000e+000  1.6007e-004  0.0000e+000  3.0533e-004
 2.656949e-009  0.0000e+000  0.0000e+000  1.5707e-004  0.0000e+000  3.0620e-004
 2.676949e-009  0.0000e+000  0.0000e+000  1.5534e-004  0.0000e+000  3.0567e-004
 2.696949e-009  0.0000e+000  0.0000e+000  1.5439e-004  0.0000e+000  3.0588e-004
 2.700000e-009  0.0000e+000  0.0000e+000  1.5430e-004  2.0680e-013  3.0582e-004
 2.701000e-009  0.0000e+000  0.0000e+000  2.2703e-004  1.0000e+000  3.4893e-004
 2.701450e-009  0.0000e+000  0.0000e+000  2.0796e-004  1.0000e+000  3.3490e-004
 2.705950e-009  0.0000e+000  0.0000e+000  1.9249e-004  1.0000e+000  3.1716e-004
 2.725950e-009  0.0000e+000  0.0000e+000  1.4697e-004  1.0000e+000  2.9736e-004
 2.745950e-009  0.0000e+000  0.0000e+000  1.3765e-004  1.0000e+000  3.0795e-004
 2.765949e-009  0.0000e+000  0.0000e+000  1.3874e-004  1.0000e+000  3.0335e-004
 2.785949e-009  0.0000e+000  0.0000e+000  1.4210e-004  1.0000e+000  3.0605e-004
 2.805949e-009  0.0000e+000  0.0000e+000  1.4536e-004  1.0000e+000  3.0503e-004
 2.825949e-009  0.0000e+000  0.0000e+000  1.4796e-004  1.0000e+000  3.0572e-004
 2.845949e-009  0.0000e+000  0.0000e+000  1.4992e-004  1.0000e+000  3.0563e-004
 2.851000e-009  0.0000e+000  0.0000e+000  1.5031e-004  1.0000e+000  3.0571e-004
 2.852000e-009  0.0000e+000  0.0000e+000  8.0334e-005  0.0000e+000  2.7339e-004
 2.852450e-009  0.0000e+000  0.0000e+000  9.9359e-005  0.0000e+000  2.8401e-004
 2.856950e-009  0.0000e+000  0.0000e+000  1.1728e-004  0.0000e+000  2.9806e-004
 2.876950e-009  0.0000e+000  0.0000e+000  1.6522e-004  0.0000e+000  3.1299e-004
 2.896950e-009  0.0000e+000  0.0000e+000  1.6913e-004  0.0000e+000  3.0395e-004
 2.916949e-009  0.0000e+000  0.0000e+000  1.6450e-004  0.0000e+000  3.0754e-004
 2.936949e-009  0.0000e+000  0.0000e+000  1.6000e-004  0.0000e+000  3.0534e-004
 2.956949e-009  0.0000e+000  0.0000e+000  1.5704e-004  0.0000e+000  3.0621e-004
 2.976949e-009  0.0000e+000  0.0000e+000  1.5532e-004  0.0000e+000  3.0567e-004
 2.996949e-009  0.0000e+000  0.0000e+000  1.5438e-004  0.0000e+000  3.0588e-004
 2.999999e-009  0.0000e+000  0.0000e+000  1.5429e-004  0.0000e+000  3.0583e-004
 3.000999e-009  0.0000e+000  0.0000e+000  2.2703e-004  1.0000e+000  3.4894e-004
