* T-Spice 13.00 Simulation	Sat Feb 09 21:28:13 2019	C:\Users\makif\Google Drive\TEZ ÇALIÞMAM\çizim\Counter_TDC\Counter_TDC\DLL_TDC_deneme.sp
* Command line: tspice -o "C:\Users\makif\Google Drive\TEZ ÇALIÞMAM\çizim\Counter_TDC\Counter_TDC\DLL_TDC_deneme.out" "C:\Users\makif\Google Drive\TEZ ÇALIÞMAM\çizim\Counter_TDC\Counter_TDC\DLL_TDC_deneme.sp" 
* T-Spice Win32 13.00.20080321.01:01:33
* Warning : "130nm.md" line 1 Invalid binned model NMOS
*         : "130nm.md" line 1 Binned models must define LMIN, LMAX, WMIN, and WMAX, and have a name suffix of .# (e.g. nch.1)
* Warning : "130nm.md" line 142 Invalid binned model PMOS
*         : "130nm.md" line 142 Binned models must define LMIN, LMAX, WMIN, and WMAX, and have a name suffix of .# (e.g. nch.1)
* Warning : Device Xnew_DFF_1.XNAND2C_1.MN1 - Acde = 0.3 is too small.
* Warning : Device Xbuffer_1.MN1 - Acde = 0.3 is too small.

*SEDIT: Alter blocks = 0

* Accuracy and Convergence options:
* numndset|dchold = 100
* 
* Timestep and Integration options:
*  relq|relchgtol = 0.0005
* 
* Model Evaluation options:
*            dcap = 2                    defnrb = 0 [sq]               defnrd = 0 [sq]
*          defnrs = 0 [sq]                 tnom = 25 [deg C]
* 
* General options:
*            temp = 25 [deg C]          threads = 8
* 
* Output options:
*           acout = 1                    ingold = 0
* 


*  Device and node counts:
*             MOSFETs - 363               MOSFET geometries - 12      
*                BJTs - 0                             JFETs - 0       
*             MESFETs - 0                            Diodes - 0       
*          Capacitors - 0                         Resistors - 0       
*           Inductors - 0                  Mutual inductors - 0       
*  Transmission lines - 0        Coupled transmission lines - 0       
*     Voltage sources - 3                   Current sources - 0       
*                VCVS - 0                              VCCS - 0       
*                CCVS - 0                              CCCS - 0       
*    V-control switch - 0                  I-control switch - 0       
*       Macro devices - 0        External C model instances - 0       
*         HDL devices - 0       
*         Subcircuits - 0              Subcircuit instances - 77      
*   Independent nodes - 908                  Boundary nodes - 4       
*         Total nodes - 912     

* *** 5 WARNING MESSAGES GENERATED DURING SETUP


*SEDIT: Alter=0
*SEDIT: Analysis types DCOP 0 ACMODEL 0 AC 0 TRANSIENT 1 TRANSFER 0 NOISE 0 

*WEDIT: .tran   1e-010   1e-007
TRANSIENT ANALYSIS
Time<s>        v(Start,Gnd)<V>  v(T4,Gnd)<V>  v(T8,Gnd)<V>  v(T12,Gnd)<V>  v(Stop,Gnd)<V>  v(B1,Gnd)<V>  v(B2,Gnd)<V>  v(B3,Gnd)<V>
 0.000000e+000  0.0000e+000  7.0112e-005  7.0112e-005  7.0112e-005  0.0000e+000  3.3000e+000  3.3000e+000  3.3000e+000
 6.250000e-012  0.0000e+000  7.0112e-005  7.0112e-005  7.0112e-005  0.0000e+000  3.3000e+000  3.3000e+000  3.3000e+000
 6.875000e-011  0.0000e+000  7.0112e-005  7.0112e-005  7.0112e-005  0.0000e+000  3.3000e+000  3.3000e+000  3.3000e+000
 2.687500e-010  0.0000e+000  7.0112e-005  7.0112e-005  7.0112e-005  0.0000e+000  3.3000e+000  3.3000e+000  3.3000e+000
 4.687500e-010  0.0000e+000  7.0112e-005  7.0112e-005  7.0112e-005  0.0000e+000  3.3000e+000  3.3000e+000  3.3000e+000
 6.687500e-010  0.0000e+000  7.0112e-005  7.0112e-005  7.0112e-005  0.0000e+000  3.3000e+000  3.3000e+000  3.3000e+000
 8.687500e-010  0.0000e+000  7.0112e-005  7.0112e-005  7.0112e-005  0.0000e+000  3.3000e+000  3.3000e+000  3.3000e+000
 1.068750e-009  0.0000e+000  7.0112e-005  7.0112e-005  7.0112e-005  0.0000e+000  3.3000e+000  3.3000e+000  3.3000e+000
 1.268750e-009  0.0000e+000  7.0112e-005  7.0112e-005  7.0112e-005  0.0000e+000  3.3000e+000  3.3000e+000  3.3000e+000
 1.468750e-009  0.0000e+000  7.0112e-005  7.0112e-005  7.0112e-005  0.0000e+000  3.3000e+000  3.3000e+000  3.3000e+000
 1.668750e-009  0.0000e+000  7.0112e-005  7.0112e-005  7.0112e-005  0.0000e+000  3.3000e+000  3.3000e+000  3.3000e+000
 1.868750e-009  0.0000e+000  7.0112e-005  7.0112e-005  7.0112e-005  0.0000e+000  3.3000e+000  3.3000e+000  3.3000e+000
 2.068750e-009  0.0000e+000  7.0112e-005  7.0112e-005  7.0112e-005  0.0000e+000  3.3000e+000  3.3000e+000  3.3000e+000
 2.268750e-009  0.0000e+000  7.0112e-005  7.0112e-005  7.0112e-005  0.0000e+000  3.3000e+000  3.3000e+000  3.3000e+000
 2.468750e-009  0.0000e+000  7.0112e-005  7.0112e-005  7.0112e-005  0.0000e+000  3.3000e+000  3.3000e+000  3.3000e+000
 2.668750e-009  0.0000e+000  7.0112e-005  7.0112e-005  7.0112e-005  0.0000e+000  3.3000e+000  3.3000e+000  3.3000e+000
 2.868750e-009  0.0000e+000  7.0112e-005  7.0112e-005  7.0112e-005  0.0000e+000  3.3000e+000  3.3000e+000  3.3000e+000
 3.068750e-009  0.0000e+000  7.0112e-005  7.0112e-005  7.0112e-005  0.0000e+000  3.3000e+000  3.3000e+000  3.3000e+000
 3.268750e-009  0.0000e+000  7.0112e-005  7.0112e-005  7.0112e-005  0.0000e+000  3.3000e+000  3.3000e+000  3.3000e+000
 3.468750e-009  0.0000e+000  7.0112e-005  7.0112e-005  7.0112e-005  0.0000e+000  3.3000e+000  3.3000e+000  3.3000e+000
 3.668750e-009  0.0000e+000  7.0112e-005  7.0112e-005  7.0112e-005  0.0000e+000  3.3000e+000  3.3000e+000  3.3000e+000
 3.868750e-009  0.0000e+000  7.0112e-005  7.0112e-005  7.0112e-005  0.0000e+000  3.3000e+000  3.3000e+000  3.3000e+000
 4.068750e-009  0.0000e+000  7.0112e-005  7.0112e-005  7.0112e-005  0.0000e+000  3.3000e+000  3.3000e+000  3.3000e+000
 4.268750e-009  0.0000e+000  7.0112e-005  7.0112e-005  7.0112e-005  0.0000e+000  3.3000e+000  3.3000e+000  3.3000e+000
 4.468750e-009  0.0000e+000  7.0112e-005  7.0112e-005  7.0112e-005  0.0000e+000  3.3000e+000  3.3000e+000  3.3000e+000
 4.668750e-009  0.0000e+000  7.0112e-005  7.0112e-005  7.0112e-005  0.0000e+000  3.3000e+000  3.3000e+000  3.3000e+000
 4.868750e-009  0.0000e+000  7.0112e-005  7.0112e-005  7.0112e-005  0.0000e+000  3.3000e+000  3.3000e+000  3.3000e+000
 5.068750e-009  0.0000e+000  7.0112e-005  7.0112e-005  7.0112e-005  0.0000e+000  3.3000e+000  3.3000e+000  3.3000e+000
 5.268750e-009  0.0000e+000  7.0112e-005  7.0112e-005  7.0112e-005  0.0000e+000  3.3000e+000  3.3000e+000  3.3000e+000
 5.468750e-009  0.0000e+000  7.0112e-005  7.0112e-005  7.0112e-005  0.0000e+000  3.3000e+000  3.3000e+000  3.3000e+000
 5.668750e-009  0.0000e+000  7.0112e-005  7.0112e-005  7.0112e-005  0.0000e+000  3.3000e+000  3.3000e+000  3.3000e+000
 5.868750e-009  0.0000e+000  7.0112e-005  7.0112e-005  7.0112e-005  0.0000e+000  3.3000e+000  3.3000e+000  3.3000e+000
 6.068750e-009  0.0000e+000  7.0112e-005  7.0112e-005  7.0112e-005  0.0000e+000  3.3000e+000  3.3000e+000  3.3000e+000
 6.268750e-009  0.0000e+000  7.0112e-005  7.0112e-005  7.0112e-005  0.0000e+000  3.3000e+000  3.3000e+000  3.3000e+000
 6.468750e-009  0.0000e+000  7.0112e-005  7.0112e-005  7.0112e-005  0.0000e+000  3.3000e+000  3.3000e+000  3.3000e+000
 6.668750e-009  0.0000e+000  7.0112e-005  7.0112e-005  7.0112e-005  0.0000e+000  3.3000e+000  3.3000e+000  3.3000e+000
 6.868750e-009  0.0000e+000  7.0112e-005  7.0112e-005  7.0112e-005  0.0000e+000  3.3000e+000  3.3000e+000  3.3000e+000
 7.068750e-009  0.0000e+000  7.0112e-005  7.0112e-005  7.0112e-005  0.0000e+000  3.3000e+000  3.3000e+000  3.3000e+000
 7.268750e-009  0.0000e+000  7.0112e-005  7.0112e-005  7.0112e-005  0.0000e+000  3.3000e+000  3.3000e+000  3.3000e+000
 7.468750e-009  0.0000e+000  7.0112e-005  7.0112e-005  7.0112e-005  0.0000e+000  3.3000e+000  3.3000e+000  3.3000e+000
 7.668750e-009  0.0000e+000  7.0112e-005  7.0112e-005  7.0112e-005  0.0000e+000  3.3000e+000  3.3000e+000  3.3000e+000
 7.868750e-009  0.0000e+000  7.0112e-005  7.0112e-005  7.0112e-005  0.0000e+000  3.3000e+000  3.3000e+000  3.3000e+000
 8.068750e-009  0.0000e+000  7.0112e-005  7.0112e-005  7.0112e-005  0.0000e+000  3.3000e+000  3.3000e+000  3.3000e+000
 8.268750e-009  0.0000e+000  7.0112e-005  7.0112e-005  7.0112e-005  0.0000e+000  3.3000e+000  3.3000e+000  3.3000e+000
 8.468750e-009  0.0000e+000  7.0112e-005  7.0112e-005  7.0112e-005  0.0000e+000  3.3000e+000  3.3000e+000  3.3000e+000
 8.668750e-009  0.0000e+000  7.0112e-005  7.0112e-005  7.0112e-005  0.0000e+000  3.3000e+000  3.3000e+000  3.3000e+000
 8.868750e-009  0.0000e+000  7.0112e-005  7.0112e-005  7.0112e-005  0.0000e+000  3.3000e+000  3.3000e+000  3.3000e+000
 9.068750e-009  0.0000e+000  7.0112e-005  7.0112e-005  7.0112e-005  0.0000e+000  3.3000e+000  3.3000e+000  3.3000e+000
 9.268750e-009  0.0000e+000  7.0112e-005  7.0112e-005  7.0112e-005  0.0000e+000  3.3000e+000  3.3000e+000  3.3000e+000
 9.468750e-009  0.0000e+000  7.0112e-005  7.0112e-005  7.0112e-005  0.0000e+000  3.3000e+000  3.3000e+000  3.3000e+000
 9.668750e-009  0.0000e+000  7.0112e-005  7.0112e-005  7.0112e-005  0.0000e+000  3.3000e+000  3.3000e+000  3.3000e+000
 9.801000e-009  0.0000e+000  7.0112e-005  7.0112e-005  7.0112e-005  0.0000e+000  3.3000e+000  3.3000e+000  3.3000e+000
 9.826000e-009  0.0000e+000  7.0112e-005  7.0112e-005  7.0112e-005  0.0000e+000  3.3000e+000  3.3000e+000  3.3000e+000
 1.000000e-008  0.0000e+000  7.0112e-005  7.0112e-005  7.0112e-005  0.0000e+000  3.3000e+000  3.3000e+000  3.3000e+000
 1.0000999e-008  0.0000e+000  4.6926e-002  4.6921e-002  5.2017e-002  3.3000e+000  3.3136e+000  3.3117e+000  3.3117e+000
 1.0001314e-008  0.0000e+000  4.3012e-002  4.3008e-002  4.7338e-002  3.3000e+000  3.3130e+000  3.3111e+000  3.3111e+000
 1.000392e-008  0.0000e+000  2.2841e-002  2.2840e-002  2.4006e-002  3.3000e+000  3.3088e+000  3.3076e+000  3.3076e+000
 1.000832e-008  0.0000e+000  2.0117e-003  2.0135e-003  6.1748e-004  3.3000e+000  3.3023e+000  3.3022e+000  3.3022e+000
 1.001338e-008  0.0000e+000 -4.6957e-003 -4.6942e-003 -5.7639e-003  3.3000e+000  3.2981e+000  3.2985e+000  3.2985e+000
 1.002230e-008  0.0000e+000 -5.4195e-003 -5.4199e-003 -5.5338e-003  3.3000e+000  3.2979e+000  3.2983e+000  3.2983e+000
 1.003495e-008  0.0000e+000 -3.1442e-003 -3.1460e-003 -3.0130e-003  3.3000e+000  3.3092e+000  3.3081e+000  3.3081e+000
 1.004953e-008  0.0000e+000 -1.7965e-003 -1.7982e-003 -1.7518e-003  3.3000e+000  3.3314e+000  3.3279e+000  3.3279e+000
 1.006437e-008  0.0000e+000 -8.7879e-004 -8.7749e-004 -8.3552e-004  3.3000e+000  3.3407e+000  3.3373e+000  3.3373e+000
 1.007480e-008  0.0000e+000 -3.8302e-004 -3.7738e-004 -3.4480e-004  3.3000e+000  3.3239e+000  3.3235e+000  3.3235e+000
 1.008232e-008  0.0000e+000 -1.7062e-004 -1.6387e-004 -1.4230e-004  3.3000e+000  3.2989e+000  3.3017e+000  3.3017e+000
 1.009072e-008  0.0000e+000 -3.5170e-005 -2.8899e-005 -1.6562e-005  3.3000e+000  3.2621e+000  3.2688e+000  3.2688e+000
 1.010040e-008  0.0000e+000  2.9733e-005  3.6228e-005  4.1285e-005  3.3000e+000  3.2061e+000  3.2180e+000  3.2180e+000
 1.011032e-008  0.0000e+000  4.0506e-005  4.6941e-005  4.8124e-005  3.3000e+000  3.1315e+000  3.1505e+000  3.1505e+000
 1.012093e-008  0.0000e+000  1.6175e-005  2.3248e-005  2.1922e-005  3.3000e+000  3.0231e+000  3.0534e+000  3.0534e+000
 1.012592e-008  0.0000e+000  1.4403e-005  2.1591e-005  2.1079e-005  3.3000e+000  2.9610e+000  2.9985e+000  2.9985e+000
 1.013026e-008  0.0000e+000  1.7605e-005  2.8841e-005  2.9323e-005  3.3000e+000  2.8993e+000  2.9463e+000  2.9464e+000
 1.013581e-008  0.0000e+000  2.7782e-005  4.5704e-005  4.7294e-005  3.3000e+000  2.8064e+000  2.8706e+000  2.8706e+000
 1.014436e-008  0.0000e+000  2.3231e-005  4.9512e-005  4.9943e-005  3.3000e+000  2.6350e+000  2.7334e+000  2.7334e+000
 1.015894e-008  0.0000e+000  9.2747e-007  2.5710e-005  2.4407e-005  3.3000e+000  2.2805e+000  2.4541e+000  2.4541e+000
 1.017537e-008  0.0000e+000 -5.3211e-005 -2.6423e-006 -3.7905e-006  3.3000e+000  1.8427e+000  2.1011e+000  2.1011e+000
 1.019009e-008  0.0000e+000 -1.0073e-004 -4.3150e-005 -4.5156e-005  3.3000e+000  1.4776e+000  1.7854e+000  1.7854e+000
 1.019884e-008  0.0000e+000 -8.4242e-005 -5.8193e-005 -5.9426e-005  3.3000e+000  1.2865e+000  1.6082e+000  1.6082e+000
 1.020665e-008  0.0000e+000 -2.5687e-005 -4.5806e-005 -4.5083e-005  3.3000e+000  1.1363e+000  1.4605e+000  1.4605e+000
 1.021277e-008  0.0000e+000  1.2853e-005 -2.6825e-005 -2.5129e-005  3.3000e+000  1.0303e+000  1.3519e+000  1.3519e+000
 1.021877e-008  0.0000e+000  4.2902e-005  1.4349e-006  4.0728e-006  3.3000e+000  9.3261e-001  1.2531e+000  1.2530e+000
 1.022475e-008  0.0000e+000  6.3681e-005  2.8593e-005  3.1226e-005  3.3000e+000  8.4139e-001  1.1630e+000  1.1628e+000
 1.023037e-008  0.0000e+000  8.4453e-005  5.3530e-005  5.5820e-005  3.3000e+000  7.6110e-001  1.0842e+000  1.0837e+000
 1.023648e-008  0.0000e+000  1.0611e-004  6.6611e-005  6.7928e-005  3.3000e+000  6.8201e-001  1.0020e+000  1.0013e+000
 1.024325e-008  0.0000e+000  1.3279e-004  8.2122e-005  8.3651e-005  3.3000e+000  6.0399e-001  9.1626e-001  9.1554e-001
 1.025069e-008  0.0000e+000  1.5102e-004  9.4947e-005  9.6592e-005  3.3000e+000  5.2810e-001  8.2882e-001  8.2817e-001
 1.025831e-008  0.0000e+000  1.6430e-004  1.1133e-004  1.1307e-004  3.3000e+000  4.5938e-001  7.4722e-001  7.4657e-001
 1.026652e-008  0.0000e+000  1.6759e-004  1.2327e-004  1.2530e-004  3.3000e+000  3.9412e-001  6.6816e-001  6.6786e-001
 1.027669e-008  0.0000e+000  1.6965e-004  1.3382e-004  1.3578e-004  3.3000e+000  3.2404e-001  5.8021e-001  5.8047e-001
 1.028543e-008  0.0000e+000  1.6267e-004  1.3657e-004  1.3730e-004  3.3000e+000  2.7139e-001  5.1336e-001  5.1391e-001
 1.029246e-008  0.0000e+000  1.5947e-004  1.4111e-004  1.4145e-004  3.3000e+000  2.3357e-001  4.6524e-001  4.6588e-001
 1.029959e-008  0.0000e+000  1.5416e-004  1.4082e-004  1.4051e-004  3.3000e+000  1.9965e-001  4.2123e-001  4.2188e-001
 1.030775e-008  0.0000e+000  1.5311e-004  1.4125e-004  1.4078e-004  3.3000e+000  1.6619e-001  3.7562e-001  3.7623e-001
 1.031517e-008  0.0000e+000  1.4841e-004  1.3516e-004  1.3419e-004  3.3000e+000  1.4040e-001  3.3748e-001  3.3801e-001
 1.031930e-008  0.0000e+000  1.4820e-004  1.3359e-004  1.3278e-004  3.3000e+000  1.2774e-001  3.1731e-001  3.1780e-001
 1.032346e-008  0.0000e+000  1.4409e-004  1.2829e-004  1.2721e-004  3.3000e+000  1.1613e-001  2.9765e-001  2.9810e-001
 1.032913e-008  0.0000e+000  1.4227e-004  1.2526e-004  1.2444e-004  3.3000e+000  1.0194e-001  2.7189e-001  2.7227e-001
 1.033822e-008  0.0000e+000  1.3401e-004  1.1780e-004  1.1690e-004  3.3000e+000  8.2605e-002  2.3330e-001  2.3354e-001
 1.035556e-008  0.0000e+000  1.2269e-004  1.1543e-004  1.1529e-004  3.3000e+000  5.4998e-002  1.7086e-001  1.7088e-001
 1.038456e-008  0.0000e+000  1.0139e-004  1.1028e-004  1.1023e-004  3.3000e+000  2.7357e-002  9.7827e-002  9.7699e-002
 1.043501e-008  0.0000e+000  8.2083e-005  9.5595e-005  9.5485e-005  3.3000e+000  7.2588e-003  3.3766e-002  3.3671e-002
 1.054697e-008  0.0000e+000  6.8016e-005  6.9457e-005  6.9269e-005  3.3000e+000 -8.0640e-004 -1.3753e-003 -1.3705e-003
 1.074697e-008  0.0000e+000  7.1362e-005  7.0527e-005  7.0688e-005  3.3000e+000  4.1512e-004  5.4610e-004  5.4218e-004
 1.094697e-008  0.0000e+000  6.9181e-005  6.9627e-005  6.9485e-005  3.3000e+000 -1.1909e-004 -1.3340e-004 -1.3086e-004
 1.114697e-008  0.0000e+000  7.0921e-005  7.0701e-005  7.0831e-005  3.3000e+000  7.9095e-005  7.4645e-005  7.2929e-005
 1.134697e-008  0.0000e+000  6.9338e-005  6.9435e-005  6.9313e-005  3.3000e+000 -2.3702e-006  2.1820e-006  3.3262e-006
 1.154697e-008  0.0000e+000  7.0873e-005  7.0841e-005  7.0958e-005  3.3000e+000  2.1607e-005  2.0177e-005  1.9403e-005
 1.174697e-008  0.0000e+000  6.9347e-005  6.9345e-005  6.9231e-005  3.3000e+000  1.3781e-005  1.3693e-005  1.4223e-005
 1.194697e-008  0.0000e+000  7.0879e-005  7.0895e-005  7.1008e-005  3.3000e+000  1.1139e-005  1.2576e-005  1.2211e-005
 1.214697e-008  0.0000e+000  6.9336e-005  6.9312e-005  6.9200e-005  3.3000e+000  1.4368e-005  1.2871e-005  1.3121e-005
 1.234697e-008  0.0000e+000  7.0890e-005  7.0916e-005  7.1027e-005  3.3000e+000  8.7241e-006  1.0657e-005  1.0481e-005
 1.254697e-008  0.0000e+000  6.9326e-005  6.9301e-005  6.9190e-005  3.3000e+000  1.3209e-005  1.1525e-005  1.1645e-005
 1.274697e-008  0.0000e+000  7.0899e-005  7.0922e-005  7.1033e-005  3.3000e+000  7.7530e-006  9.6701e-006  9.5821e-006
 1.294697e-008  0.0000e+000  6.9318e-005  6.9299e-005  6.9187e-005  3.3000e+000  1.2214e-005  1.0545e-005  1.0606e-005
 1.314697e-008  0.0000e+000  7.0906e-005  7.0923e-005  7.1034e-005  3.3000e+000  7.1286e-006  8.9890e-006  8.9385e-006
 1.334697e-008  0.0000e+000  6.9312e-005  6.9298e-005  6.9187e-005  3.3000e+000  1.1497e-005  9.8422e-006  9.8795e-006
 1.354697e-008  0.0000e+000  7.0911e-005  7.0922e-005  7.1034e-005  3.3000e+000  6.6513e-006  8.4805e-006  8.4426e-006
 1.374697e-008  0.0000e+000  6.9308e-005  6.9300e-005  6.9188e-005  3.3000e+000  1.0974e-005  9.3140e-006  9.3457e-006
 1.394697e-008  0.0000e+000  7.0915e-005  7.0921e-005  7.1032e-005  3.3000e+000  6.2693e-006  8.0989e-006  8.0616e-006
 1.414697e-008  0.0000e+000  6.9305e-005  6.9301e-005  6.9189e-005  3.3000e+000  1.0578e-005  8.8897e-006  8.9249e-006
 1.434697e-008  0.0000e+000  7.0917e-005  7.0919e-005  7.1031e-005  3.3000e+000  5.9582e-006  7.7997e-006  7.7564e-006
 1.454697e-008  0.0000e+000  6.9303e-005  6.9303e-005  6.9191e-005  3.3000e+000  1.0267e-005  8.5472e-006  8.5905e-006
 1.474697e-008  0.0000e+000  7.0919e-005  7.0917e-005  7.1029e-005  3.3000e+000  5.7017e-006  7.5587e-006  7.5068e-006
 1.494697e-008  0.0000e+000  6.9301e-005  6.9305e-005  6.9193e-005  3.3000e+000  1.0014e-005  8.2650e-006  8.3177e-006
 1.514697e-008  0.0000e+000  7.0920e-005  7.0915e-005  7.1027e-005  3.3000e+000  5.5574e-006  7.3605e-006  7.2996e-006
 1.534697e-008  0.0000e+000  6.9300e-005  6.9308e-005  6.9196e-005  3.3000e+000  9.7749e-006  8.0284e-006  8.0900e-006
 1.554697e-008  0.0000e+000  7.0921e-005  7.0912e-005  7.1024e-005  3.3000e+000  5.3919e-006  7.1949e-006  7.1258e-006
 1.574697e-008  0.0000e+000  6.9300e-005  6.9310e-005  6.9198e-005  3.3000e+000  9.5916e-006  7.8272e-006  7.8966e-006
 1.594697e-008  0.0000e+000  7.0921e-005  7.0910e-005  7.1022e-005  3.3000e+000  5.2427e-006  7.0547e-006  6.9785e-006
 1.614697e-008  0.0000e+000  6.9300e-005  6.9312e-005  6.9201e-005  3.3000e+000  9.4382e-006  7.6540e-006  7.7299e-006
 1.634697e-008  0.0000e+000  7.0921e-005  7.0907e-005  7.1019e-005  3.3000e+000  5.1126e-006  6.9345e-006  6.8525e-006
 1.654697e-008  0.0000e+000  6.9300e-005  6.9315e-005  6.9203e-005  3.3000e+000  9.3061e-006  7.5034e-006  7.5848e-006
 1.674697e-008  0.0000e+000  7.0921e-005  7.0905e-005  7.1016e-005  3.3000e+000  4.9801e-006  6.8305e-006  6.7436e-006
 1.694697e-008  0.0000e+000  6.9301e-005  6.9317e-005  6.9206e-005  3.3000e+000  9.1986e-006  7.3714e-006  7.4573e-006
 1.714697e-008  0.0000e+000  7.0920e-005  7.0903e-005  7.1014e-005  3.3000e+000  4.8783e-006  6.7396e-006  6.6486e-006
 1.734697e-008  0.0000e+000  6.9301e-005  6.9319e-005  6.9208e-005  3.3000e+000  9.0976e-006  7.2546e-006  7.3443e-006
 1.754697e-008  0.0000e+000  7.0920e-005  7.0900e-005  7.1011e-005  3.3000e+000  4.7912e-006  6.6426e-006  6.5482e-006
 1.774697e-008  0.0000e+000  6.9302e-005  6.9322e-005  6.9211e-005  3.3000e+000  9.0067e-006  7.1563e-006  7.2491e-006
 1.794697e-008  0.0000e+000  7.0919e-005  7.0898e-005  7.1009e-005  3.3000e+000  4.7145e-006  6.5708e-006  6.4736e-006
 1.814697e-008  0.0000e+000  6.9302e-005  6.9324e-005  6.9213e-005  3.3000e+000  8.9249e-006  7.0634e-006  7.1587e-006
 1.834697e-008  0.0000e+000  7.0918e-005  7.0896e-005  7.1007e-005  3.3000e+000  4.6462e-006  6.5084e-006  6.4090e-006
 1.854697e-008  0.0000e+000  6.9303e-005  6.9326e-005  6.9215e-005  3.3000e+000  8.8513e-006  6.9792e-006  7.0766e-006
 1.874697e-008  0.0000e+000  7.0917e-005  7.0894e-005  7.1005e-005  3.3000e+000  4.5849e-006  6.4525e-006  6.3513e-006
 1.894697e-008  0.0000e+000  6.9304e-005  6.9328e-005  6.9217e-005  3.3000e+000  8.7845e-006  6.9031e-006  7.0022e-006
 1.914697e-008  0.0000e+000  7.0917e-005  7.0893e-005  7.1003e-005  3.3000e+000  4.5296e-006  6.4021e-006  6.2994e-006
 1.934697e-008  0.0000e+000  6.9305e-005  6.9329e-005  6.9219e-005  3.3000e+000  8.7239e-006  6.8341e-006  6.9345e-006
