* T-Spice 13.00 Simulation	Sat Feb 09 21:35:36 2019	C:\Users\makif\Google Drive\TEZ ÇALIÞMAM\çizim\Counter_TDC\Counter_TDC\new_DFF.sp
* Command line: tspice -o "C:\Users\makif\Google Drive\TEZ ÇALIÞMAM\çizim\Counter_TDC\Counter_TDC\new_DFF.out" "C:\Users\makif\Google Drive\TEZ ÇALIÞMAM\çizim\Counter_TDC\Counter_TDC\new_DFF.sp" 
* T-Spice Win32 13.00.20080321.01:01:33

*SEDIT: Alter blocks = 0

* Accuracy and Convergence options:
* numndset|dchold = 100
* 
* Timestep and Integration options:
*  relq|relchgtol = 0.0005
* 
* Model Evaluation options:
*            dcap = 2                    defnrb = 0 [sq]               defnrd = 0 [sq]
*          defnrs = 0 [sq]                 tnom = 25 [deg C]
* 
* General options:
*            temp = 25 [deg C]          threads = 8
* 
* Output options:
*           acout = 1                    ingold = 0
* 


*  Device and node counts:
*             MOSFETs - 30                MOSFET geometries - 4       
*                BJTs - 0                             JFETs - 0       
*             MESFETs - 0                            Diodes - 0       
*          Capacitors - 0                         Resistors - 0       
*           Inductors - 0                  Mutual inductors - 0       
*  Transmission lines - 0        Coupled transmission lines - 0       
*     Voltage sources - 3                   Current sources - 0       
*                VCVS - 0                              VCCS - 0       
*                CCVS - 0                              CCCS - 0       
*    V-control switch - 0                  I-control switch - 0       
*       Macro devices - 0        External C model instances - 0       
*         HDL devices - 0       
*         Subcircuits - 0              Subcircuit instances - 5       
*   Independent nodes - 15                   Boundary nodes - 4       
*         Total nodes - 19      


*SEDIT: Alter=0
*SEDIT: Analysis types DCOP 0 ACMODEL 0 AC 0 TRANSIENT 1 TRANSFER 0 NOISE 0 

*WEDIT: .tran   1e-009   1e-006
TRANSIENT ANALYSIS
Time<s>        v(Clk,Gnd)<V>  v(Q,Gnd)<V>  v(D,Gnd)<V>
 0.000000e+000  0.0000e+000  1.7459e+000  3.3000e+000
 6.250000e-011  2.0625e+000  1.8066e+000  3.3000e+000
 9.375000e-011  3.0937e+000  1.9713e+000  3.3000e+000
 1.000000e-010  3.3000e+000  2.0087e+000  3.3000e+000
 1.111228e-010  3.3000e+000  2.1314e+000  3.3000e+000
 1.372896e-010  3.3000e+000  2.5966e+000  3.3000e+000
 1.503730e-010  3.3000e+000  2.7992e+000  3.3000e+000
 1.621610e-010  3.3000e+000  2.9495e+000  3.3000e+000
 1.712997e-010  3.3000e+000  3.0383e+000  3.3000e+000
 1.801674e-010  3.3000e+000  3.1012e+000  3.3000e+000
 1.911760e-010  3.3000e+000  3.1561e+000  3.3000e+000
 2.090554e-010  3.3000e+000  3.2104e+000  3.3000e+000
 2.342953e-010  3.3000e+000  3.2488e+000  3.3000e+000
 2.673680e-010  3.3000e+000  3.2736e+000  3.3000e+000
 3.142252e-010  3.3000e+000  3.2903e+000  3.3000e+000
 3.951643e-010  3.3000e+000  3.2990e+000  3.3000e+000
 5.918522e-010  3.3000e+000  3.3003e+000  3.3000e+000
 1.622635e-009  3.3000e+000  3.2997e+000  3.3000e+000
 3.622635e-009  3.3000e+000  3.3003e+000  3.3000e+000
 5.622635e-009  3.3000e+000  3.2998e+000  3.3000e+000
 7.622635e-009  3.3000e+000  3.3002e+000  3.3000e+000
 9.622635e-009  3.3000e+000  3.2998e+000  3.3000e+000
 1.162263e-008  3.3000e+000  3.3002e+000  3.3000e+000
 1.362263e-008  3.3000e+000  3.2998e+000  3.3000e+000
 1.562263e-008  3.3000e+000  3.3001e+000  3.3000e+000
 1.762263e-008  3.3000e+000  3.2999e+000  3.3000e+000
 1.962263e-008  3.3000e+000  3.3001e+000  3.3000e+000
 2.162263e-008  3.3000e+000  3.2999e+000  3.3000e+000
 2.362263e-008  3.3000e+000  3.3001e+000  3.3000e+000
 2.562263e-008  3.3000e+000  3.2999e+000  3.3000e+000
 2.762263e-008  3.3000e+000  3.3001e+000  3.3000e+000
 2.962263e-008  3.3000e+000  3.2999e+000  3.3000e+000
 3.162263e-008  3.3000e+000  3.3001e+000  3.3000e+000
 3.362263e-008  3.3000e+000  3.2999e+000  3.3000e+000
 3.562263e-008  3.3000e+000  3.3001e+000  3.3000e+000
 3.762263e-008  3.3000e+000  3.2999e+000  3.3000e+000
 3.962263e-008  3.3000e+000  3.3001e+000  3.3000e+000
 4.162263e-008  3.3000e+000  3.2999e+000  3.3000e+000
 4.362263e-008  3.3000e+000  3.3000e+000  3.3000e+000
 4.562263e-008  3.3000e+000  3.3000e+000  3.3000e+000
 4.762263e-008  3.3000e+000  3.3000e+000  3.3000e+000
 4.962263e-008  3.3000e+000  3.3000e+000  3.3000e+000
 5.162263e-008  3.3000e+000  3.3000e+000  3.3000e+000
 5.362263e-008  3.3000e+000  3.3000e+000  3.3000e+000
 5.562263e-008  3.3000e+000  3.3000e+000  3.3000e+000
 5.762263e-008  3.3000e+000  3.3000e+000  3.3000e+000
 5.962263e-008  3.3000e+000  3.3000e+000  3.3000e+000
 6.010000e-008  3.3000e+000  3.3000e+000  3.3000e+000
 6.020000e-008  0.0000e+000  3.3349e+000  3.3000e+000
 6.025000e-008  0.0000e+000  3.3357e+000  3.3000e+000
 6.027500e-008  0.0000e+000  3.3271e+000  3.3000e+000
 6.038073e-008  0.0000e+000  3.2975e+000  3.3000e+000
 6.054005e-008  0.0000e+000  3.3004e+000  3.3000e+000
 6.101560e-008  0.0000e+000  3.2999e+000  3.3000e+000
 6.289954e-008  0.0000e+000  3.3001e+000  3.3000e+000
 6.489954e-008  0.0000e+000  3.3000e+000  3.3000e+000
 6.689954e-008  0.0000e+000  3.3000e+000  3.3000e+000
 6.889954e-008  0.0000e+000  3.3001e+000  3.3000e+000
 7.089954e-008  0.0000e+000  3.2999e+000  3.3000e+000
 7.289954e-008  0.0000e+000  3.3001e+000  3.3000e+000
 7.489954e-008  0.0000e+000  3.2999e+000  3.3000e+000
 7.689954e-008  0.0000e+000  3.3002e+000  3.3000e+000
 7.889954e-008  0.0000e+000  3.2998e+000  3.3000e+000
 8.089954e-008  0.0000e+000  3.3002e+000  3.3000e+000
 8.289954e-008  0.0000e+000  3.2998e+000  3.3000e+000
 8.489954e-008  0.0000e+000  3.3002e+000  3.3000e+000
 8.689954e-008  0.0000e+000  3.2998e+000  3.3000e+000
 8.889954e-008  0.0000e+000  3.3002e+000  3.3000e+000
 9.089954e-008  0.0000e+000  3.2998e+000  3.3000e+000
 9.289954e-008  0.0000e+000  3.3003e+000  3.3000e+000
 9.489954e-008  0.0000e+000  3.2997e+000  3.3000e+000
 9.689954e-008  0.0000e+000  3.3003e+000  3.3000e+000
 9.889954e-008  0.0000e+000  3.2997e+000  3.3000e+000
 1.000000e-007  0.0000e+000  3.3003e+000  3.3000e+000
 1.001000e-007  0.0000e+000  3.2996e+000  0.0000e+000
 1.001500e-007  0.0000e+000  3.3004e+000  0.0000e+000
 1.002434e-007  0.0000e+000  3.3002e+000  0.0000e+000
 1.008609e-007  0.0000e+000  3.2999e+000  0.0000e+000
 1.015692e-007  0.0000e+000  3.3001e+000  0.0000e+000
 1.035692e-007  0.0000e+000  3.2999e+000  0.0000e+000
 1.055692e-007  0.0000e+000  3.3000e+000  0.0000e+000
 1.075692e-007  0.0000e+000  3.3000e+000  0.0000e+000
 1.095692e-007  0.0000e+000  3.3000e+000  0.0000e+000
 1.115692e-007  0.0000e+000  3.3000e+000  0.0000e+000
 1.135692e-007  0.0000e+000  3.3000e+000  0.0000e+000
 1.155692e-007  0.0000e+000  3.3000e+000  0.0000e+000
 1.175692e-007  0.0000e+000  3.3000e+000  0.0000e+000
 1.195692e-007  0.0000e+000  3.3000e+000  0.0000e+000
 1.200000e-007  0.0000e+000  3.3000e+000  0.0000e+000
 1.202500e-007  3.3000e+000  7.7100e-001  0.0000e+000
 1.203750e-007  3.3000e+000  2.4492e-001  0.0000e+000
 1.204375e-007  3.3000e+000  6.4727e-002  0.0000e+000
 1.205259e-007  3.3000e+000  2.4499e-003  0.0000e+000
 1.207391e-007  3.3000e+000 -1.7503e-004  0.0000e+000
 1.226424e-007  3.3000e+000  8.5087e-005  0.0000e+000
 1.246424e-007  3.3000e+000  2.7949e-005  0.0000e+000
 1.266424e-007  3.3000e+000 -1.0045e-004  0.0000e+000
 1.286424e-007  3.3000e+000  1.8573e-004  0.0000e+000
 1.306424e-007  3.3000e+000 -2.4338e-004  0.0000e+000
 1.326424e-007  3.3000e+000  3.0863e-004  0.0000e+000
 1.346424e-007  3.3000e+000 -3.5294e-004  0.0000e+000
 1.366424e-007  3.3000e+000  4.0267e-004  0.0000e+000
 1.386424e-007  3.3000e+000 -4.3573e-004  0.0000e+000
 1.406424e-007  3.3000e+000  4.7317e-004  0.0000e+000
 1.426424e-007  3.3000e+000 -4.9695e-004  0.0000e+000
 1.446424e-007  3.3000e+000  5.2459e-004  0.0000e+000
 1.466424e-007  3.3000e+000 -5.4081e-004  0.0000e+000
 1.486424e-007  3.3000e+000  5.6061e-004  0.0000e+000
 1.506424e-007  3.3000e+000 -5.7073e-004  0.0000e+000
 1.526424e-007  3.3000e+000  5.8425e-004  0.0000e+000
 1.546424e-007  3.3000e+000 -5.8947e-004  0.0000e+000
 1.566424e-007  3.3000e+000  5.9800e-004  0.0000e+000
 1.586424e-007  3.3000e+000 -5.9931e-004  0.0000e+000
 1.606424e-007  3.3000e+000  6.0386e-004  0.0000e+000
 1.626424e-007  3.3000e+000 -6.0210e-004  0.0000e+000
 1.646424e-007  3.3000e+000  6.0350e-004  0.0000e+000
 1.666424e-007  3.3000e+000 -5.9932e-004  0.0000e+000
 1.686424e-007  3.3000e+000  5.9825e-004  0.0000e+000
 1.706424e-007  3.3000e+000 -5.9222e-004  0.0000e+000
 1.726424e-007  3.3000e+000  5.8922e-004  0.0000e+000
 1.746424e-007  3.3000e+000 -5.8177e-004  0.0000e+000
 1.766424e-007  3.3000e+000  5.7729e-004  0.0000e+000
 1.786424e-007  3.3000e+000 -5.6878e-004  0.0000e+000
 1.801000e-007  3.3000e+000  5.6038e-004  0.0000e+000
 1.802000e-007  0.0000e+000  4.0831e-003  0.0000e+000
 1.802499e-007  0.0000e+000  2.6729e-003  0.0000e+000
 1.802749e-007  0.0000e+000 -1.8520e-005  0.0000e+000
 1.803978e-007  0.0000e+000 -3.2947e-003  0.0000e+000
 1.805980e-007  0.0000e+000  1.6695e-003  0.0000e+000
 1.811311e-007  0.0000e+000 -1.2473e-003  0.0000e+000
 1.828311e-007  0.0000e+000  1.1356e-003  0.0000e+000
 1.848311e-007  0.0000e+000 -1.0468e-003  0.0000e+000
 1.868311e-007  0.0000e+000  9.6363e-004  0.0000e+000
 1.888311e-007  0.0000e+000 -8.8574e-004  0.0000e+000
 1.908311e-007  0.0000e+000  8.1296e-004  0.0000e+000
 1.928311e-007  0.0000e+000 -7.4486e-004  0.0000e+000
 1.948311e-007  0.0000e+000  6.8135e-004  0.0000e+000
 1.968311e-007  0.0000e+000 -6.2200e-004  0.0000e+000
 1.988311e-007  0.0000e+000  5.6678e-004  0.0000e+000
 2.000000e-007  0.0000e+000 -4.8067e-004  0.0000e+000
 2.001000e-007  0.0000e+000  7.6867e-004  3.3000e+000
 2.001500e-007  0.0000e+000 -9.9045e-004  3.3000e+000
 2.001750e-007  0.0000e+000 -8.7547e-004  3.3000e+000
 2.002139e-007  0.0000e+000 -4.3705e-004  3.3000e+000
 2.002520e-007  0.0000e+000 -3.9544e-005  3.3000e+000
 2.002995e-007  0.0000e+000  4.4724e-005  3.3000e+000
 2.003801e-007  0.0000e+000  1.4973e-005  3.3000e+000
 2.005735e-007  0.0000e+000  6.3392e-006  3.3000e+000
 2.015481e-007  0.0000e+000 -3.1432e-006  3.3000e+000
 2.035481e-007  0.0000e+000  3.1433e-006  3.3000e+000
 2.055481e-007  0.0000e+000 -2.7222e-006  3.3000e+000
 2.075481e-007  0.0000e+000  2.6651e-006  3.3000e+000
 2.095481e-007  0.0000e+000 -2.3330e-006  3.3000e+000
 2.115481e-007  0.0000e+000  2.3218e-006  3.3000e+000
 2.135481e-007  0.0000e+000 -2.0454e-006  3.3000e+000
 2.155481e-007  0.0000e+000  2.0743e-006  3.3000e+000
 2.175481e-007  0.0000e+000 -1.8378e-006  3.3000e+000
 2.195481e-007  0.0000e+000  1.8981e-006  3.3000e+000
 2.215481e-007  0.0000e+000 -1.6911e-006  3.3000e+000
 2.235481e-007  0.0000e+000  1.7751e-006  3.3000e+000
 2.255481e-007  0.0000e+000 -1.5897e-006  3.3000e+000
 2.275481e-007  0.0000e+000  1.6929e-006  3.3000e+000
 2.295481e-007  0.0000e+000 -1.5232e-006  3.3000e+000
 2.315481e-007  0.0000e+000  1.6390e-006  3.3000e+000
 2.335481e-007  0.0000e+000 -1.4806e-006  3.3000e+000
 2.355481e-007  0.0000e+000  1.6054e-006  3.3000e+000
 2.375481e-007  0.0000e+000 -1.4550e-006  3.3000e+000
 2.395481e-007  0.0000e+000  1.5860e-006  3.3000e+000
 2.400000e-007  0.0000e+000 -1.4269e-006  3.3000e+000
 2.401000e-007  3.3000e+000  3.9604e-001  3.3000e+000
 2.401500e-007  3.3000e+000  1.0877e+000  3.3000e+000
 2.401750e-007  3.3000e+000  1.5537e+000  3.3000e+000
 2.4019821e-007  3.3000e+000  1.9918e+000  3.3000e+000
 2.402225e-007  3.3000e+000  2.3967e+000  3.3000e+000
 2.4023051e-007  3.3000e+000  2.5086e+000  3.3000e+000
 2.4023781e-007  3.3000e+000  2.6146e+000  3.3000e+000
 2.4024843e-007  3.3000e+000  2.7591e+000  3.3000e+000
 2.4026916e-007  3.3000e+000  2.9939e+000  3.3000e+000
 2.402952e-007  3.3000e+000  3.1547e+000  3.3000e+000
 2.403212e-007  3.3000e+000  3.2140e+000  3.3000e+000
 2.4033711e-007  3.3000e+000  3.2350e+000  3.3000e+000
 2.4034893e-007  3.3000e+000  3.2453e+000  3.3000e+000
 2.4036223e-007  3.3000e+000  3.2508e+000  3.3000e+000
 2.4038336e-007  3.3000e+000  3.2582e+000  3.3000e+000
 2.404115e-007  3.3000e+000  3.2706e+000  3.3000e+000
 2.404496e-007  3.3000e+000  3.2855e+000  3.3000e+000
 2.405090e-007  3.3000e+000  3.2963e+000  3.3000e+000
 2.406267e-007  3.3000e+000  3.3003e+000  3.3000e+000
 2.410054e-007  3.3000e+000  3.2999e+000  3.3000e+000
 2.430054e-007  3.3000e+000  3.3001e+000  3.3000e+000
 2.450054e-007  3.3000e+000  3.2999e+000  3.3000e+000
 2.470054e-007  3.3000e+000  3.3001e+000  3.3000e+000
 2.490054e-007  3.3000e+000  3.2999e+000  3.3000e+000
 2.510054e-007  3.3000e+000  3.3001e+000  3.3000e+000
 2.530054e-007  3.3000e+000  3.2999e+000  3.3000e+000
 2.550054e-007  3.3000e+000  3.3001e+000  3.3000e+000
 2.570054e-007  3.3000e+000  3.2999e+000  3.3000e+000
 2.590054e-007  3.3000e+000  3.3000e+000  3.3000e+000
 2.610054e-007  3.3000e+000  3.3000e+000  3.3000e+000
 2.630054e-007  3.3000e+000  3.3000e+000  3.3000e+000
 2.650054e-007  3.3000e+000  3.3000e+000  3.3000e+000
 2.670054e-007  3.3000e+000  3.3000e+000  3.3000e+000
 2.690054e-007  3.3000e+000  3.3000e+000  3.3000e+000
 2.710054e-007  3.3000e+000  3.3000e+000  3.3000e+000
 2.730054e-007  3.3000e+000  3.3000e+000  3.3000e+000
 2.750054e-007  3.3000e+000  3.3000e+000  3.3000e+000
 2.770054e-007  3.3000e+000  3.3000e+000  3.3000e+000
 2.790054e-007  3.3000e+000  3.3000e+000  3.3000e+000
 2.810054e-007  3.3000e+000  3.3000e+000  3.3000e+000
 2.830054e-007  3.3000e+000  3.3000e+000  3.3000e+000
 2.850054e-007  3.3000e+000  3.3000e+000  3.3000e+000
 2.870054e-007  3.3000e+000  3.3000e+000  3.3000e+000
 2.890054e-007  3.3000e+000  3.3000e+000  3.3000e+000
 2.910054e-007  3.3000e+000  3.3000e+000  3.3000e+000
 2.930054e-007  3.3000e+000  3.3000e+000  3.3000e+000
 2.950054e-007  3.3000e+000  3.3000e+000  3.3000e+000
 2.970054e-007  3.3000e+000  3.3000e+000  3.3000e+000
 2.990054e-007  3.3000e+000  3.3000e+000  3.3000e+000
 3.001000e-007  3.3000e+000  3.3000e+000  3.3000e+000
 3.002000e-007  8.7352e-013  3.3339e+000  3.3000e+000
 3.002500e-007  0.0000e+000  3.3361e+000  3.3000e+000
 3.0027500e-007  0.0000e+000  3.3279e+000  3.3000e+000
 3.003794e-007  0.0000e+000  3.2980e+000  3.3000e+000
 3.005358e-007  0.0000e+000  3.3001e+000  3.3000e+000
 3.010071e-007  0.0000e+000  3.3001e+000  3.3000e+000
 3.029024e-007  0.0000e+000  3.2999e+000  3.3000e+000
 3.049024e-007  0.0000e+000  3.3002e+000  3.3000e+000
 3.069024e-007  0.0000e+000  3.2998e+000  3.3000e+000
 3.089024e-007  0.0000e+000  3.3002e+000  3.3000e+000
 3.109024e-007  0.0000e+000  3.2998e+000  3.3000e+000
 3.129024e-007  0.0000e+000  3.3002e+000  3.3000e+000
 3.149024e-007  0.0000e+000  3.2997e+000  3.3000e+000
 3.169024e-007  0.0000e+000  3.3003e+000  3.3000e+000
 3.189024e-007  0.0000e+000  3.2997e+000  3.3000e+000
 3.209024e-007  0.0000e+000  3.3003e+000  3.3000e+000
 3.229024e-007  0.0000e+000  3.2997e+000  3.3000e+000
 3.249024e-007  0.0000e+000  3.3003e+000  3.3000e+000
 3.269024e-007  0.0000e+000  3.2997e+000  3.3000e+000
 3.289024e-007  0.0000e+000  3.3003e+000  3.3000e+000
 3.309024e-007  0.0000e+000  3.2997e+000  3.3000e+000
 3.329024e-007  0.0000e+000  3.3003e+000  3.3000e+000
 3.349024e-007  0.0000e+000  3.2997e+000  3.3000e+000
 3.369024e-007  0.0000e+000  3.3003e+000  3.3000e+000
 3.389024e-007  0.0000e+000  3.2997e+000  3.3000e+000
 3.409024e-007  0.0000e+000  3.3003e+000  3.3000e+000
 3.429024e-007  0.0000e+000  3.2997e+000  3.3000e+000
 3.449024e-007  0.0000e+000  3.3003e+000  3.3000e+000
 3.469024e-007  0.0000e+000  3.2997e+000  3.3000e+000
 3.489024e-007  0.0000e+000  3.3003e+000  3.3000e+000
 3.509024e-007  0.0000e+000  3.2997e+000  3.3000e+000
 3.529024e-007  0.0000e+000  3.3003e+000  3.3000e+000
 3.549024e-007  0.0000e+000  3.2997e+000  3.3000e+000
 3.569024e-007  0.0000e+000  3.3003e+000  3.3000e+000
 3.589024e-007  0.0000e+000  3.2997e+000  3.3000e+000
 3.600000e-007  0.0000e+000  3.3002e+000  3.3000e+000
 3.601000e-007  3.3000e+000  3.2789e+000  3.3000e+000
 3.601500e-007  3.3000e+000  3.2795e+000  3.3000e+000
 3.6017500e-007  3.3000e+000  3.2821e+000  3.3000e+000
 3.602174e-007  3.3000e+000  3.2872e+000  3.3000e+000
 3.602591e-007  3.3000e+000  3.2934e+000  3.3000e+000
 3.603140e-007  3.3000e+000  3.2984e+000  3.3000e+000
 3.604178e-007  3.3000e+000  3.2999e+000  3.3000e+000
 3.607161e-007  3.3000e+000  3.3001e+000  3.3000e+000
 3.627161e-007  3.3000e+000  3.2999e+000  3.3000e+000
 3.647161e-007  3.3000e+000  3.3001e+000  3.3000e+000
 3.667161e-007  3.3000e+000  3.2999e+000  3.3000e+000
 3.687161e-007  3.3000e+000  3.3001e+000  3.3000e+000
 3.707161e-007  3.3000e+000  3.2999e+000  3.3000e+000
 3.727161e-007  3.3000e+000  3.3001e+000  3.3000e+000
 3.747161e-007  3.3000e+000  3.2999e+000  3.3000e+000
 3.767161e-007  3.3000e+000  3.3001e+000  3.3000e+000
 3.787161e-007  3.3000e+000  3.2999e+000  3.3000e+000
 3.807161e-007  3.3000e+000  3.3001e+000  3.3000e+000
 3.827161e-007  3.3000e+000  3.2999e+000  3.3000e+000
 3.847161e-007  3.3000e+000  3.3001e+000  3.3000e+000
 3.867161e-007  3.3000e+000  3.2999e+000  3.3000e+000
 3.887161e-007  3.3000e+000  3.3001e+000  3.3000e+000
 3.907161e-007  3.3000e+000  3.2999e+000  3.3000e+000
 3.927161e-007  3.3000e+000  3.3001e+000  3.3000e+000
 3.947161e-007  3.3000e+000  3.2999e+000  3.3000e+000
 3.967161e-007  3.3000e+000  3.3001e+000  3.3000e+000
 3.987161e-007  3.3000e+000  3.2999e+000  3.3000e+000
 4.007161e-007  3.3000e+000  3.3001e+000  3.3000e+000
 4.027161e-007  3.3000e+000  3.2999e+000  3.3000e+000
 4.047161e-007  3.3000e+000  3.3001e+000  3.3000e+000
 4.067161e-007  3.3000e+000  3.2999e+000  3.3000e+000
 4.087161e-007  3.3000e+000  3.3001e+000  3.3000e+000
 4.107161e-007  3.3000e+000  3.2999e+000  3.3000e+000
 4.127161e-007  3.3000e+000  3.3001e+000  3.3000e+000
 4.147161e-007  3.3000e+000  3.2999e+000  3.3000e+000
 4.167161e-007  3.3000e+000  3.3001e+000  3.3000e+000
 4.187161e-007  3.3000e+000  3.2999e+000  3.3000e+000
 4.201000e-007  3.3000e+000  3.3001e+000  3.3000e+000
 4.202000e-007  8.7352e-013  3.3349e+000  3.3000e+000
 4.202500e-007  0.0000e+000  3.3357e+000  3.3000e+000
 4.2027500e-007  0.0000e+000  3.3271e+000  3.3000e+000
 4.203807e-007  0.0000e+000  3.2975e+000  3.3000e+000
 4.205399e-007  0.0000e+000  3.3004e+000  3.3000e+000
 4.210154e-007  0.0000e+000  3.2999e+000  3.3000e+000
 4.228995e-007  0.0000e+000  3.3000e+000  3.3000e+000
 4.248995e-007  0.0000e+000  3.3000e+000  3.3000e+000
 4.268995e-007  0.0000e+000  3.3000e+000  3.3000e+000
 4.288995e-007  0.0000e+000  3.3001e+000  3.3000e+000
 4.308995e-007  0.0000e+000  3.2999e+000  3.3000e+000
 4.328995e-007  0.0000e+000  3.3001e+000  3.3000e+000
 4.348995e-007  0.0000e+000  3.2999e+000  3.3000e+000
 4.368995e-007  0.0000e+000  3.3002e+000  3.3000e+000
 4.388995e-007  0.0000e+000  3.2998e+000  3.3000e+000
 4.408995e-007  0.0000e+000  3.3002e+000  3.3000e+000
 4.428995e-007  0.0000e+000  3.2998e+000  3.3000e+000
 4.448995e-007  0.0000e+000  3.3002e+000  3.3000e+000
 4.468995e-007  0.0000e+000  3.2998e+000  3.3000e+000
 4.488995e-007  0.0000e+000  3.3002e+000  3.3000e+000
 4.508995e-007  0.0000e+000  3.2998e+000  3.3000e+000
 4.528995e-007  0.0000e+000  3.3003e+000  3.3000e+000
 4.548995e-007  0.0000e+000  3.2997e+000  3.3000e+000
 4.568995e-007  0.0000e+000  3.3003e+000  3.3000e+000
 4.588995e-007  0.0000e+000  3.2997e+000  3.3000e+000
 4.608995e-007  0.0000e+000  3.3003e+000  3.3000e+000
 4.628995e-007  0.0000e+000  3.2997e+000  3.3000e+000
 4.648995e-007  0.0000e+000  3.3003e+000  3.3000e+000
 4.668995e-007  0.0000e+000  3.2997e+000  3.3000e+000
 4.688995e-007  0.0000e+000  3.3003e+000  3.3000e+000
 4.708995e-007  0.0000e+000  3.2998e+000  3.3000e+000
 4.728995e-007  0.0000e+000  3.3002e+000  3.3000e+000
 4.748995e-007  0.0000e+000  3.2998e+000  3.3000e+000
 4.768995e-007  0.0000e+000  3.3002e+000  3.3000e+000
 4.788995e-007  0.0000e+000  3.2998e+000  3.3000e+000
 4.800000e-007  0.0000e+000  3.3002e+000  3.3000e+000
 4.801000e-007  3.3000e+000  3.2789e+000  3.3000e+000
 4.801500e-007  3.3000e+000  3.2795e+000  3.3000e+000
