* T-Spice 13.00 Simulation	Fri Feb 01 23:46:59 2019	C:\Users\makif\Google Drive\TEZ ÇALIÞMAM\çizim\Counter_TDC\Counter_TDC\schimit_trigger_old.sp
* Command line: tspice -o "C:\Users\makif\Google Drive\TEZ ÇALIÞMAM\çizim\Counter_TDC\Counter_TDC\schimit_trigger_old.out" "C:\Users\makif\Google Drive\TEZ ÇALIÞMAM\çizim\Counter_TDC\Counter_TDC\schimit_trigger_old.sp" 
* T-Spice Win32 13.00.20080321.01:01:33
* Warning : "130nm.md" line 1 Invalid binned model NMOS
*         : "130nm.md" line 1 Binned models must define LMIN, LMAX, WMIN, and WMAX, and have a name suffix of .# (e.g. nch.1)
* Warning : "130nm.md" line 142 Invalid binned model PMOS
*         : "130nm.md" line 142 Binned models must define LMIN, LMAX, WMIN, and WMAX, and have a name suffix of .# (e.g. nch.1)
* Warning : Device MNMOS_1 - Acde = 0.3 is too small.

*SEDIT: Alter blocks = 0

* Accuracy and Convergence options:
* numndset|dchold = 100
* 
* Timestep and Integration options:
*  relq|relchgtol = 0.0005
* 
* Model Evaluation options:
*            dcap = 2                    defnrb = 0 [sq]               defnrd = 0 [sq]
*          defnrs = 0 [sq]                 tnom = 25 [deg C]
* 
* General options:
*            temp = 25 [deg C]          threads = 8
* 
* Output options:
*           acout = 1                    ingold = 0
* 


*  Device and node counts:
*             MOSFETs - 6                 MOSFET geometries - 4       
*                BJTs - 0                             JFETs - 0       
*             MESFETs - 0                            Diodes - 0       
*          Capacitors - 0                         Resistors - 0       
*           Inductors - 0                  Mutual inductors - 0       
*  Transmission lines - 0        Coupled transmission lines - 0       
*     Voltage sources - 2                   Current sources - 0       
*                VCVS - 0                              VCCS - 0       
*                CCVS - 0                              CCCS - 0       
*    V-control switch - 0                  I-control switch - 0       
*       Macro devices - 0        External C model instances - 0       
*         HDL devices - 0       
*         Subcircuits - 0              Subcircuit instances - 0       
*   Independent nodes - 15                   Boundary nodes - 3       
*         Total nodes - 18      

* *** 4 WARNING MESSAGES GENERATED DURING SETUP


*SEDIT: Alter=0
*SEDIT: Analysis types DCOP 0 ACMODEL 0 AC 0 TRANSIENT 1 TRANSFER 0 NOISE 0 

*WEDIT: .tran   1e-010   1e-007
TRANSIENT ANALYSIS
Time<s>        v(In,Gnd)<V>  v(Out,Gnd)<V>
 0.000000e+000  0.0000e+000  3.3000e+000
 6.250000e-012  0.0000e+000  3.3000e+000
 6.875000e-011  0.0000e+000  3.3000e+000
 2.687500e-010  0.0000e+000  3.3000e+000
 4.687500e-010  0.0000e+000  3.3000e+000
 6.687500e-010  0.0000e+000  3.3000e+000
 8.687500e-010  0.0000e+000  3.3000e+000
 1.068750e-009  0.0000e+000  3.3000e+000
 1.268750e-009  0.0000e+000  3.3000e+000
 1.468750e-009  0.0000e+000  3.3000e+000
 1.668750e-009  0.0000e+000  3.3000e+000
 1.868750e-009  0.0000e+000  3.3000e+000
 2.068750e-009  0.0000e+000  3.3000e+000
 2.268750e-009  0.0000e+000  3.3000e+000
 2.468750e-009  0.0000e+000  3.3000e+000
 2.668750e-009  0.0000e+000  3.3000e+000
 2.868750e-009  0.0000e+000  3.3000e+000
 3.068750e-009  0.0000e+000  3.3000e+000
 3.268750e-009  0.0000e+000  3.3000e+000
 3.468750e-009  0.0000e+000  3.3000e+000
 3.668750e-009  0.0000e+000  3.3000e+000
 3.868750e-009  0.0000e+000  3.3000e+000
 4.068750e-009  0.0000e+000  3.3000e+000
 4.268750e-009  0.0000e+000  3.3000e+000
 4.468750e-009  0.0000e+000  3.3000e+000
 4.668750e-009  0.0000e+000  3.3000e+000
 4.868750e-009  0.0000e+000  3.3000e+000
 5.068750e-009  0.0000e+000  3.3000e+000
 5.268750e-009  0.0000e+000  3.3000e+000
 5.468750e-009  0.0000e+000  3.3000e+000
 5.668750e-009  0.0000e+000  3.3000e+000
 5.868750e-009  0.0000e+000  3.3000e+000
 6.068750e-009  0.0000e+000  3.3000e+000
 6.268750e-009  0.0000e+000  3.3000e+000
 6.468750e-009  0.0000e+000  3.3000e+000
 6.668750e-009  0.0000e+000  3.3000e+000
 6.868750e-009  0.0000e+000  3.3000e+000
 7.068750e-009  0.0000e+000  3.3000e+000
 7.268750e-009  0.0000e+000  3.3000e+000
 7.468750e-009  0.0000e+000  3.3000e+000
 7.668750e-009  0.0000e+000  3.3000e+000
 7.868750e-009  0.0000e+000  3.3000e+000
 8.068750e-009  0.0000e+000  3.3000e+000
 8.268750e-009  0.0000e+000  3.3000e+000
 8.468750e-009  0.0000e+000  3.3000e+000
 8.668750e-009  0.0000e+000  3.3000e+000
 8.868750e-009  0.0000e+000  3.3000e+000
 9.068750e-009  0.0000e+000  3.3000e+000
 9.268750e-009  0.0000e+000  3.3000e+000
 9.468750e-009  0.0000e+000  3.3000e+000
 9.668750e-009  0.0000e+000  3.3000e+000
 9.868750e-009  0.0000e+000  3.3000e+000
 1.006875e-008  0.0000e+000  3.3000e+000
 1.026875e-008  0.0000e+000  3.3000e+000
 1.046875e-008  0.0000e+000  3.3000e+000
 1.066875e-008  0.0000e+000  3.3000e+000
 1.086875e-008  0.0000e+000  3.3000e+000
 1.106875e-008  0.0000e+000  3.3000e+000
 1.126875e-008  0.0000e+000  3.3000e+000
 1.146875e-008  0.0000e+000  3.3000e+000
 1.166875e-008  0.0000e+000  3.3000e+000
 1.186875e-008  0.0000e+000  3.3000e+000
 1.206875e-008  0.0000e+000  3.3000e+000
 1.226875e-008  0.0000e+000  3.3000e+000
 1.246875e-008  0.0000e+000  3.3000e+000
 1.266875e-008  0.0000e+000  3.3000e+000
 1.286875e-008  0.0000e+000  3.3000e+000
 1.306875e-008  0.0000e+000  3.3000e+000
 1.326875e-008  0.0000e+000  3.3000e+000
 1.346875e-008  0.0000e+000  3.3000e+000
 1.366875e-008  0.0000e+000  3.3000e+000
 1.386875e-008  0.0000e+000  3.3000e+000
 1.406875e-008  0.0000e+000  3.3000e+000
 1.426875e-008  0.0000e+000  3.3000e+000
 1.446875e-008  0.0000e+000  3.3000e+000
 1.466875e-008  0.0000e+000  3.3000e+000
 1.486875e-008  0.0000e+000  3.3000e+000
 1.506875e-008  0.0000e+000  3.3000e+000
 1.526875e-008  0.0000e+000  3.3000e+000
 1.546875e-008  0.0000e+000  3.3000e+000
 1.566875e-008  0.0000e+000  3.3000e+000
 1.586875e-008  0.0000e+000  3.3000e+000
 1.606875e-008  0.0000e+000  3.3000e+000
 1.626874e-008  0.0000e+000  3.3000e+000
 1.646874e-008  0.0000e+000  3.3000e+000
 1.666874e-008  0.0000e+000  3.3000e+000
 1.686874e-008  0.0000e+000  3.3000e+000
 1.706874e-008  0.0000e+000  3.3000e+000
 1.726874e-008  0.0000e+000  3.3000e+000
 1.746874e-008  0.0000e+000  3.3000e+000
 1.766874e-008  0.0000e+000  3.3000e+000
 1.786874e-008  0.0000e+000  3.3000e+000
 1.806874e-008  0.0000e+000  3.3000e+000
 1.826874e-008  0.0000e+000  3.3000e+000
 1.846874e-008  0.0000e+000  3.3000e+000
 1.866874e-008  0.0000e+000  3.3000e+000
 1.886874e-008  0.0000e+000  3.3000e+000
 1.906874e-008  0.0000e+000  3.3000e+000
 1.926874e-008  0.0000e+000  3.3000e+000
 1.946874e-008  0.0000e+000  3.3000e+000
 1.966874e-008  0.0000e+000  3.3000e+000
 1.986874e-008  0.0000e+000  3.3000e+000
 2.000000e-008  0.0000e+000  3.3000e+000
 2.002500e-008  8.2500e-001  3.4167e+000
 2.003863e-008  1.2750e+000  3.4536e+000
 2.005227e-008  1.7250e+000  3.4842e+000
 2.006590e-008  2.1750e+000  3.4887e+000
 2.008098e-008  2.6725e+000  3.2032e+000
 2.009855e-008  3.2523e+000  1.7465e+000
 2.0100000e-008  3.3000e+000  1.5998e+000
 2.010250e-008  3.3000e+000  1.3491e+000
 2.010754e-008  3.3000e+000  9.4921e-001
 2.011320e-008  3.3000e+000  5.7063e-001
 2.011874e-008  3.3000e+000  3.2965e-001
 2.012552e-008  3.3000e+000  1.5210e-001
 2.013518e-008  3.3000e+000  2.8880e-002
 2.014775e-008  3.3000e+000 -2.4181e-002
 2.016397e-008  3.3000e+000 -2.9107e-002
 2.018682e-008  3.3000e+000 -1.7227e-002
 2.022281e-008  3.3000e+000 -6.9634e-003
 2.028512e-008  3.3000e+000 -2.5368e-003
 2.040535e-008  3.3000e+000 -6.8809e-004
 2.046547e-008  3.3000e+000 -5.2817e-004
 2.066547e-008  3.3000e+000 -1.2946e-004
 2.086547e-008  3.3000e+000 -1.1529e-004
 2.106547e-008  3.3000e+000 -1.7214e-005
 2.126547e-008  3.3000e+000 -5.6868e-005
 2.146547e-008  3.3000e+000  2.8325e-006
 2.166547e-008  3.3000e+000 -3.7672e-005
 2.186547e-008  3.3000e+000  8.5105e-006
 2.206547e-008  3.3000e+000 -2.8577e-005
 2.226547e-008  3.3000e+000  1.0657e-005
 2.246547e-008  3.3000e+000 -2.3455e-005
 2.266547e-008  3.3000e+000  1.1728e-005
 2.286547e-008  3.3000e+000 -2.0284e-005
 2.306547e-008  3.3000e+000  1.2399e-005
 2.326547e-008  3.3000e+000 -1.8204e-005
 2.346547e-008  3.3000e+000  1.2903e-005
 2.366547e-008  3.3000e+000 -1.6782e-005
 2.386547e-008  3.3000e+000  1.3322e-005
 2.406547e-008  3.3000e+000 -1.5779e-005
 2.426547e-008  3.3000e+000  1.3686e-005
 2.446547e-008  3.3000e+000 -1.5050e-005
 2.466547e-008  3.3000e+000  1.4008e-005
 2.486547e-008  3.3000e+000 -1.4505e-005
 2.506547e-008  3.3000e+000  1.4294e-005
 2.526547e-008  3.3000e+000 -1.4088e-005
 2.546547e-008  3.3000e+000  1.4549e-005
 2.566547e-008  3.3000e+000 -1.3762e-005
 2.586547e-008  3.3000e+000  1.4776e-005
 2.606547e-008  3.3000e+000 -1.3500e-005
 2.626547e-008  3.3000e+000  1.4978e-005
 2.646547e-008  3.3000e+000 -1.3286e-005
 2.666547e-008  3.3000e+000  1.5158e-005
 2.686547e-008  3.3000e+000 -1.3108e-005
 2.706547e-008  3.3000e+000  1.5318e-005
 2.726547e-008  3.3000e+000 -1.2957e-005
 2.746547e-008  3.3000e+000  1.5461e-005
 2.766547e-008  3.3000e+000 -1.2827e-005
 2.786547e-008  3.3000e+000  1.5589e-005
 2.806547e-008  3.3000e+000 -1.2714e-005
 2.826547e-008  3.3000e+000  1.5704e-005
 2.846547e-008  3.3000e+000 -1.2615e-005
 2.866547e-008  3.3000e+000  1.5807e-005
 2.886547e-008  3.3000e+000 -1.2527e-005
 2.906547e-008  3.3000e+000  1.5901e-005
 2.926547e-008  3.3000e+000 -1.2448e-005
 2.946547e-008  3.3000e+000  1.5985e-005
 2.966547e-008  3.3000e+000 -1.2377e-005
 2.986547e-008  3.3000e+000  1.6062e-005
 3.006547e-008  3.3000e+000 -1.2312e-005
 3.026547e-008  3.3000e+000  1.6132e-005
 3.046547e-008  3.3000e+000 -1.2253e-005
 3.066547e-008  3.3000e+000  1.6196e-005
 3.086547e-008  3.3000e+000 -1.2199e-005
 3.106547e-008  3.3000e+000  1.6255e-005
 3.126547e-008  3.3000e+000 -1.2150e-005
 3.146547e-008  3.3000e+000  1.6309e-005
 3.166547e-008  3.3000e+000 -1.2104e-005
 3.186547e-008  3.3000e+000  1.6359e-005
 3.206547e-008  3.3000e+000 -1.2061e-005
 3.226547e-008  3.3000e+000  1.6404e-005
 3.246547e-008  3.3000e+000 -1.2021e-005
 3.266547e-008  3.3000e+000  1.6447e-005
 3.286547e-008  3.3000e+000 -1.1984e-005
 3.306547e-008  3.3000e+000  1.6486e-005
 3.326547e-008  3.3000e+000 -1.1950e-005
 3.346547e-008  3.3000e+000  1.6523e-005
 3.366547e-008  3.3000e+000 -1.1917e-005
 3.386547e-008  3.3000e+000  1.6557e-005
 3.406547e-008  3.3000e+000 -1.1886e-005
 3.426547e-008  3.3000e+000  1.6589e-005
 3.446547e-008  3.3000e+000 -1.1858e-005
 3.466547e-008  3.3000e+000  1.6619e-005
 3.486547e-008  3.3000e+000 -1.1830e-005
 3.506547e-008  3.3000e+000  1.6647e-005
 3.526547e-008  3.3000e+000 -1.1804e-005
 3.546547e-008  3.3000e+000  1.6673e-005
 3.566547e-008  3.3000e+000 -1.1780e-005
 3.586547e-008  3.3000e+000  1.6698e-005
 3.606547e-008  3.3000e+000 -1.1757e-005
 3.626547e-008  3.3000e+000  1.6721e-005
 3.646547e-008  3.3000e+000 -1.1735e-005
 3.666547e-008  3.3000e+000  1.6743e-005
 3.686547e-008  3.3000e+000 -1.1714e-005
 3.706547e-008  3.3000e+000  1.6764e-005
 3.726547e-008  3.3000e+000 -1.1694e-005
 3.746547e-008  3.3000e+000  1.6783e-005
 3.766547e-008  3.3000e+000 -1.1675e-005
 3.786547e-008  3.3000e+000  1.6802e-005
 3.806547e-008  3.3000e+000 -1.1656e-005
 3.826547e-008  3.3000e+000  1.6819e-005
 3.846547e-008  3.3000e+000 -1.1639e-005
 3.866547e-008  3.3000e+000  1.6836e-005
 3.886547e-008  3.3000e+000 -1.1622e-005
 3.906547e-008  3.3000e+000  1.6852e-005
 3.926547e-008  3.3000e+000 -1.1606e-005
 3.946547e-008  3.3000e+000  1.6867e-005
 3.966547e-008  3.3000e+000 -1.1591e-005
 3.986547e-008  3.3000e+000  1.6881e-005
 4.006547e-008  3.3000e+000 -1.1576e-005
 4.026547e-008  3.3000e+000  1.6895e-005
 4.046547e-008  3.3000e+000 -1.1562e-005
 4.066547e-008  3.3000e+000  1.6908e-005
 4.086547e-008  3.3000e+000 -1.1548e-005
 4.106547e-008  3.3000e+000  1.6920e-005
 4.126547e-008  3.3000e+000 -1.1535e-005
 4.146547e-008  3.3000e+000  1.6932e-005
 4.166547e-008  3.3000e+000 -1.1522e-005
 4.186547e-008  3.3000e+000  1.6943e-005
 4.206547e-008  3.3000e+000 -1.1510e-005
 4.226547e-008  3.3000e+000  1.6954e-005
 4.246547e-008  3.3000e+000 -1.1498e-005
 4.266547e-008  3.3000e+000  1.6964e-005
 4.286547e-008  3.3000e+000 -1.1486e-005
 4.306547e-008  3.3000e+000  1.6974e-005
 4.326547e-008  3.3000e+000 -1.1475e-005
 4.346547e-008  3.3000e+000  1.6983e-005
 4.366547e-008  3.3000e+000 -1.1464e-005
 4.386547e-008  3.3000e+000  1.6992e-005
 4.406547e-008  3.3000e+000 -1.1454e-005
 4.426547e-008  3.3000e+000  1.7001e-005
 4.446547e-008  3.3000e+000 -1.1444e-005
 4.466547e-008  3.3000e+000  1.7009e-005
 4.486547e-008  3.3000e+000 -1.1434e-005
 4.506547e-008  3.3000e+000  1.7017e-005
 4.526547e-008  3.3000e+000 -1.1425e-005
 4.546547e-008  3.3000e+000  1.7025e-005
 4.566547e-008  3.3000e+000 -1.1415e-005
 4.586547e-008  3.3000e+000  1.7032e-005
 4.606547e-008  3.3000e+000 -1.1406e-005
 4.626547e-008  3.3000e+000  1.7039e-005
 4.646547e-008  3.3000e+000 -1.1398e-005
 4.666547e-008  3.3000e+000  1.7046e-005
 4.686547e-008  3.3000e+000 -1.1389e-005
 4.706547e-008  3.3000e+000  1.7052e-005
 4.726547e-008  3.3000e+000 -1.1381e-005
 4.746547e-008  3.3000e+000  1.7059e-005
 4.766547e-008  3.3000e+000 -1.1373e-005
 4.786547e-008  3.3000e+000  1.7065e-005
 4.806547e-008  3.3000e+000 -1.1365e-005
 4.826547e-008  3.3000e+000  1.7071e-005
 4.846547e-008  3.3000e+000 -1.1357e-005
 4.866547e-008  3.3000e+000  1.7076e-005
 4.886547e-008  3.3000e+000 -1.1350e-005
 4.906547e-008  3.3000e+000  1.7082e-005
 4.926547e-008  3.3000e+000 -1.1343e-005
 4.946547e-008  3.3000e+000  1.7087e-005
 4.966547e-008  3.3000e+000 -1.1336e-005
 4.986547e-008  3.3000e+000  1.7092e-005
 5.000000e-008  3.3000e+000 -1.1198e-005
 5.002500e-008  2.4750e+000 -8.8864e-002
 5.005650e-008  1.4355e+000 -7.9429e-002
 5.007225e-008  9.1575e-001 -8.3339e-002
 5.008541e-008  4.8139e-001 -5.4072e-002
 5.009741e-008  8.5265e-002  2.0999e-001
 5.0100000e-008  0.0000e+000  3.0524e-001
 5.010503e-008  0.0000e+000  5.6942e-001
 5.011360e-008  0.0000e+000  1.0485e+000
 5.012165e-008  0.0000e+000  1.4793e+000
 5.012915e-008  0.0000e+000  1.8093e+000
 5.013747e-008  0.0000e+000  2.1037e+000
 5.014693e-008  0.0000e+000  2.3734e+000
 5.015881e-008  0.0000e+000  2.6379e+000
 5.017470e-008  0.0000e+000  2.8808e+000
 5.019769e-008  0.0000e+000  3.0833e+000
 5.023472e-008  0.0000e+000  3.2297e+000
 5.030411e-008  0.0000e+000  3.3004e+000
 5.046697e-008  0.0000e+000  3.3015e+000
 5.066697e-008  0.0000e+000  3.2996e+000
 5.086697e-008  0.0000e+000  3.3003e+000
 5.106697e-008  0.0000e+000  3.3000e+000
 5.126697e-008  0.0000e+000  3.3001e+000
 5.146697e-008  0.0000e+000  3.3000e+000
 5.166697e-008  0.0000e+000  3.3000e+000
 5.186697e-008  0.0000e+000  3.3000e+000
 5.206697e-008  0.0000e+000  3.3000e+000
 5.226697e-008  0.0000e+000  3.3000e+000
 5.246697e-008  0.0000e+000  3.3000e+000
 5.266697e-008  0.0000e+000  3.3000e+000
 5.286697e-008  0.0000e+000  3.3000e+000
 5.306697e-008  0.0000e+000  3.3000e+000
 5.326697e-008  0.0000e+000  3.3000e+000
 5.346697e-008  0.0000e+000  3.3000e+000
 5.366697e-008  0.0000e+000  3.3000e+000
 5.386697e-008  0.0000e+000  3.3000e+000
 5.406697e-008  0.0000e+000  3.3000e+000
 5.426697e-008  0.0000e+000  3.3000e+000
 5.446697e-008  0.0000e+000  3.3000e+000
 5.466697e-008  0.0000e+000  3.3000e+000
 5.486697e-008  0.0000e+000  3.3000e+000
 5.506697e-008  0.0000e+000  3.3000e+000
 5.526697e-008  0.0000e+000  3.3000e+000
 5.546697e-008  0.0000e+000  3.3000e+000
 5.566697e-008  0.0000e+000  3.3000e+000
 5.586697e-008  0.0000e+000  3.3000e+000
 5.606697e-008  0.0000e+000  3.3000e+000
 5.626697e-008  0.0000e+000  3.3000e+000
 5.646697e-008  0.0000e+000  3.3000e+000
 5.666697e-008  0.0000e+000  3.3000e+000
 5.686697e-008  0.0000e+000  3.3000e+000
 5.706697e-008  0.0000e+000  3.3000e+000
 5.726697e-008  0.0000e+000  3.3000e+000
 5.746697e-008  0.0000e+000  3.3000e+000
 5.766697e-008  0.0000e+000  3.3000e+000
 5.786697e-008  0.0000e+000  3.3000e+000
 5.806697e-008  0.0000e+000  3.3000e+000
 5.826697e-008  0.0000e+000  3.3000e+000
 5.846697e-008  0.0000e+000  3.3000e+000
 5.866697e-008  0.0000e+000  3.3000e+000
 5.886697e-008  0.0000e+000  3.3000e+000
 5.906697e-008  0.0000e+000  3.3000e+000
 5.926697e-008  0.0000e+000  3.3000e+000
 5.946697e-008  0.0000e+000  3.3000e+000
 5.966697e-008  0.0000e+000  3.3000e+000
 5.986697e-008  0.0000e+000  3.3000e+000
 6.000000e-008  0.0000e+000  3.3000e+000
 6.002500e-008  8.2500e-001  3.4168e+000
 6.003863e-008  1.2750e+000  3.4541e+000
 6.005227e-008  1.7250e+000  3.4849e+000
 6.006569e-008  2.1681e+000  3.4910e+000
 6.008063e-008  2.6609e+000  3.2254e+000
 6.009808e-008  3.2368e+000  1.7870e+000
 6.0100000e-008  3.3000e+000  1.5911e+000
 6.0102910e-008  3.3000e+000  1.3056e+000
 6.0108017e-008  3.3000e+000  9.1164e-001
 6.0113850e-008  3.3000e+000  5.3624e-001
 6.0119572e-008  3.3000e+000  3.0166e-001
 6.012667e-008  3.3000e+000  1.3080e-001
 6.013667e-008  3.3000e+000  1.8254e-002
 6.014964e-008  3.3000e+000 -2.6851e-002
 6.016645e-008  3.3000e+000 -2.7983e-002
 6.019054e-008  3.3000e+000 -1.5561e-002
 6.022898e-008  3.3000e+000 -6.1239e-003
 6.029638e-008  3.3000e+000 -2.1986e-003
 6.042855e-008  3.3000e+000 -5.6312e-004
 6.049464e-008  3.3000e+000 -4.3734e-004
 6.069464e-008  3.3000e+000 -1.1766e-004
 6.089464e-008  3.3000e+000 -1.0032e-004
 6.109464e-008  3.3000e+000 -2.2192e-005
 6.129464e-008  3.3000e+000 -4.7183e-005
 6.149464e-008  3.3000e+000 -4.3278e-006
 6.169464e-008  3.3000e+000 -2.8781e-005
 6.189464e-008  3.3000e+000  1.3940e-006
 6.209464e-008  3.3000e+000 -2.0645e-005
 6.229464e-008  3.3000e+000  3.9246e-006
 6.249464e-008  3.3000e+000 -1.6266e-005
 6.269464e-008  3.3000e+000  5.4554e-006
 6.289464e-008  3.3000e+000 -1.3745e-005
 6.309464e-008  3.3000e+000  6.6092e-006
 6.329464e-008  3.3000e+000 -1.2253e-005
 6.349464e-008  3.3000e+000  7.5856e-006
 6.369464e-008  3.3000e+000 -1.1368e-005
 6.389464e-008  3.3000e+000  8.4526e-006
 6.409464e-008  3.3000e+000 -1.0855e-005
 6.429464e-008  3.3000e+000  9.2351e-006
 6.449464e-008  3.3000e+000 -1.0571e-005
 6.469464e-008  3.3000e+000  9.9438e-006
 6.489464e-008  3.3000e+000 -1.0432e-005
 6.509464e-008  3.3000e+000  1.0585e-005
 6.529464e-008  3.3000e+000 -1.0384e-005
 6.549464e-008  3.3000e+000  1.1164e-005
 6.569464e-008  3.3000e+000 -1.0391e-005
 6.589464e-008  3.3000e+000  1.1690e-005
 6.609464e-008  3.3000e+000 -1.0433e-005
 6.629464e-008  3.3000e+000  1.2151e-005
 6.649464e-008  3.3000e+000 -1.0486e-005
 6.669464e-008  3.3000e+000  1.2572e-005
 6.689464e-008  3.3000e+000 -1.0553e-005
 6.709464e-008  3.3000e+000  1.2954e-005
 6.729464e-008  3.3000e+000 -1.0625e-005
 6.749464e-008  3.3000e+000  1.3299e-005
 6.769464e-008  3.3000e+000 -1.0699e-005
 6.789464e-008  3.3000e+000  1.3611e-005
 6.809464e-008  3.3000e+000 -1.0753e-005
 6.829464e-008  3.3000e+000  1.3879e-005
 6.849464e-008  3.3000e+000 -1.0809e-005
 6.869464e-008  3.3000e+000  1.4123e-005
 6.889464e-008  3.3000e+000 -1.0862e-005
 6.909464e-008  3.3000e+000  1.4346e-005
 6.929464e-008  3.3000e+000 -1.0913e-005
 6.949464e-008  3.3000e+000  1.4548e-005
 6.969464e-008  3.3000e+000 -1.0959e-005
 6.989464e-008  3.3000e+000  1.4732e-005
 7.009464e-008  3.3000e+000 -1.1001e-005
 7.029464e-008  3.3000e+000  1.4899e-005
 7.049464e-008  3.3000e+000 -1.1039e-005
 7.069464e-008  3.3000e+000  1.5050e-005
 7.089464e-008  3.3000e+000 -1.1072e-005
 7.109464e-008  3.3000e+000  1.5188e-005
 7.129464e-008  3.3000e+000 -1.1100e-005
 7.149464e-008  3.3000e+000  1.5313e-005
 7.169464e-008  3.3000e+000 -1.1125e-005
 7.189464e-008  3.3000e+000  1.5426e-005
 7.209464e-008  3.3000e+000 -1.1145e-005
 7.229464e-008  3.3000e+000  1.5530e-005
 7.249464e-008  3.3000e+000 -1.1163e-005
 7.269464e-008  3.3000e+000  1.5624e-005
 7.289464e-008  3.3000e+000 -1.1177e-005
 7.309464e-008  3.3000e+000  1.5710e-005
 7.329464e-008  3.3000e+000 -1.1188e-005
 7.349464e-008  3.3000e+000  1.5789e-005
 7.369464e-008  3.3000e+000 -1.1197e-005
 7.389464e-008  3.3000e+000  1.5861e-005
 7.409464e-008  3.3000e+000 -1.1204e-005
