* T-Spice 13.00 Simulation	Fri Feb 01 23:45:10 2019	C:\Users\makif\Google Drive\TEZ ÇALIÞMAM\çizim\Counter_TDC\Counter_TDC\schimit_trigger.sp
* Command line: tspice -o "C:\Users\makif\Google Drive\TEZ ÇALIÞMAM\çizim\Counter_TDC\Counter_TDC\schimit_trigger.out" "C:\Users\makif\Google Drive\TEZ ÇALIÞMAM\çizim\Counter_TDC\Counter_TDC\schimit_trigger.sp" 
* T-Spice Win32 13.00.20080321.01:01:33
* Warning : "130nm.md" line 1 Invalid binned model NMOS
*         : "130nm.md" line 1 Binned models must define LMIN, LMAX, WMIN, and WMAX, and have a name suffix of .# (e.g. nch.1)
* Warning : "130nm.md" line 142 Invalid binned model PMOS
*         : "130nm.md" line 142 Binned models must define LMIN, LMAX, WMIN, and WMAX, and have a name suffix of .# (e.g. nch.1)
* Warning : Device MNMOS_1 - Pd = 6.8e-006 is less than W.
* Warning : Device MNMOS_1 - Ps = 6.8e-006 is less than W.
* Warning : Device MNMOS_1 - Acde = 0.3 is too small.
* Warning : Device MNMOS_2 - Acde = 0.3 is too small.

*SEDIT: Alter blocks = 0

* Accuracy and Convergence options:
* numndset|dchold = 100
* 
* Timestep and Integration options:
*  relq|relchgtol = 0.0005
* 
* Model Evaluation options:
*            dcap = 2                    defnrb = 0 [sq]               defnrd = 0 [sq]
*          defnrs = 0 [sq]                 tnom = 25 [deg C]
* 
* General options:
*            temp = 25 [deg C]          threads = 8
* 
* Output options:
*           acout = 1                    ingold = 0
* 


*  Device and node counts:
*             MOSFETs - 6                 MOSFET geometries - 8       
*                BJTs - 0                             JFETs - 0       
*             MESFETs - 0                            Diodes - 0       
*          Capacitors - 0                         Resistors - 0       
*           Inductors - 0                  Mutual inductors - 0       
*  Transmission lines - 0        Coupled transmission lines - 0       
*     Voltage sources - 2                   Current sources - 0       
*                VCVS - 0                              VCCS - 0       
*                CCVS - 0                              CCCS - 0       
*    V-control switch - 0                  I-control switch - 0       
*       Macro devices - 0        External C model instances - 0       
*         HDL devices - 0       
*         Subcircuits - 0              Subcircuit instances - 0       
*   Independent nodes - 15                   Boundary nodes - 3       
*         Total nodes - 18      

* *** 7 WARNING MESSAGES GENERATED DURING SETUP


*SEDIT: Alter=0
*SEDIT: Analysis types DCOP 0 ACMODEL 0 AC 0 TRANSIENT 1 TRANSFER 0 NOISE 0 

*WEDIT: .tran   1e-010   1e-007
TRANSIENT ANALYSIS
Time<s>        v(In,Gnd)<V>  v(Out,Gnd)<V>
 0.000000e+000  0.0000e+000  1.5598e+000
 6.250000e-012  0.0000e+000  1.5598e+000
 6.875000e-011  0.0000e+000  1.5598e+000
 2.687500e-010  0.0000e+000  1.5598e+000
 4.687500e-010  0.0000e+000  1.5598e+000
 6.687500e-010  0.0000e+000  1.5598e+000
 8.687500e-010  0.0000e+000  1.5598e+000
 1.068750e-009  0.0000e+000  1.5598e+000
 1.268750e-009  0.0000e+000  1.5598e+000
 1.468750e-009  0.0000e+000  1.5598e+000
 1.668750e-009  0.0000e+000  1.5598e+000
 1.868750e-009  0.0000e+000  1.5598e+000
 2.068750e-009  0.0000e+000  1.5598e+000
 2.268750e-009  0.0000e+000  1.5598e+000
 2.468750e-009  0.0000e+000  1.5598e+000
 2.668750e-009  0.0000e+000  1.5598e+000
 2.868750e-009  0.0000e+000  1.5598e+000
 3.068750e-009  0.0000e+000  1.5598e+000
 3.268750e-009  0.0000e+000  1.5598e+000
 3.468750e-009  0.0000e+000  1.5598e+000
 3.668750e-009  0.0000e+000  1.5598e+000
 3.868750e-009  0.0000e+000  1.5598e+000
 4.068750e-009  0.0000e+000  1.5598e+000
 4.268750e-009  0.0000e+000  1.5598e+000
 4.468750e-009  0.0000e+000  1.5598e+000
 4.668750e-009  0.0000e+000  1.5598e+000
 4.868750e-009  0.0000e+000  1.5598e+000
 5.068750e-009  0.0000e+000  1.5598e+000
 5.268750e-009  0.0000e+000  1.5598e+000
 5.468750e-009  0.0000e+000  1.5598e+000
 5.668750e-009  0.0000e+000  1.5598e+000
 5.868750e-009  0.0000e+000  1.5598e+000
 6.068750e-009  0.0000e+000  1.5598e+000
 6.268750e-009  0.0000e+000  1.5598e+000
 6.468750e-009  0.0000e+000  1.5598e+000
 6.668750e-009  0.0000e+000  1.5598e+000
 6.868750e-009  0.0000e+000  1.5598e+000
 7.068750e-009  0.0000e+000  1.5598e+000
 7.268750e-009  0.0000e+000  1.5598e+000
 7.468750e-009  0.0000e+000  1.5598e+000
 7.668750e-009  0.0000e+000  1.5598e+000
 7.868750e-009  0.0000e+000  1.5598e+000
 8.068750e-009  0.0000e+000  1.5598e+000
 8.268750e-009  0.0000e+000  1.5598e+000
 8.468750e-009  0.0000e+000  1.5598e+000
 8.668750e-009  0.0000e+000  1.5598e+000
 8.868750e-009  0.0000e+000  1.5598e+000
 9.068750e-009  0.0000e+000  1.5598e+000
 9.268750e-009  0.0000e+000  1.5598e+000
 9.468750e-009  0.0000e+000  1.5598e+000
 9.668750e-009  0.0000e+000  1.5598e+000
 9.868750e-009  0.0000e+000  1.5598e+000
 1.006875e-008  0.0000e+000  1.5598e+000
 1.026875e-008  0.0000e+000  1.5598e+000
 1.046875e-008  0.0000e+000  1.5598e+000
 1.066875e-008  0.0000e+000  1.5598e+000
 1.086875e-008  0.0000e+000  1.5598e+000
 1.106875e-008  0.0000e+000  1.5598e+000
 1.126875e-008  0.0000e+000  1.5598e+000
 1.146875e-008  0.0000e+000  1.5598e+000
 1.166875e-008  0.0000e+000  1.5598e+000
 1.186875e-008  0.0000e+000  1.5598e+000
 1.206875e-008  0.0000e+000  1.5598e+000
 1.226875e-008  0.0000e+000  1.5598e+000
 1.246875e-008  0.0000e+000  1.5598e+000
 1.266875e-008  0.0000e+000  1.5598e+000
 1.286875e-008  0.0000e+000  1.5598e+000
 1.306875e-008  0.0000e+000  1.5598e+000
 1.326875e-008  0.0000e+000  1.5598e+000
 1.346875e-008  0.0000e+000  1.5598e+000
 1.366875e-008  0.0000e+000  1.5598e+000
 1.386875e-008  0.0000e+000  1.5598e+000
 1.406875e-008  0.0000e+000  1.5598e+000
 1.426875e-008  0.0000e+000  1.5598e+000
 1.446875e-008  0.0000e+000  1.5598e+000
 1.466875e-008  0.0000e+000  1.5598e+000
 1.486875e-008  0.0000e+000  1.5598e+000
 1.506875e-008  0.0000e+000  1.5598e+000
 1.526875e-008  0.0000e+000  1.5598e+000
 1.546875e-008  0.0000e+000  1.5598e+000
 1.566875e-008  0.0000e+000  1.5598e+000
 1.586875e-008  0.0000e+000  1.5598e+000
 1.606875e-008  0.0000e+000  1.5598e+000
 1.626874e-008  0.0000e+000  1.5598e+000
 1.646874e-008  0.0000e+000  1.5598e+000
 1.666874e-008  0.0000e+000  1.5598e+000
 1.686874e-008  0.0000e+000  1.5598e+000
 1.706874e-008  0.0000e+000  1.5598e+000
 1.726874e-008  0.0000e+000  1.5598e+000
 1.746874e-008  0.0000e+000  1.5598e+000
 1.766874e-008  0.0000e+000  1.5598e+000
 1.786874e-008  0.0000e+000  1.5598e+000
 1.806874e-008  0.0000e+000  1.5598e+000
 1.826874e-008  0.0000e+000  1.5598e+000
 1.846874e-008  0.0000e+000  1.5598e+000
 1.866874e-008  0.0000e+000  1.5598e+000
 1.886874e-008  0.0000e+000  1.5598e+000
 1.906874e-008  0.0000e+000  1.5598e+000
 1.926874e-008  0.0000e+000  1.5598e+000
 1.946874e-008  0.0000e+000  1.5598e+000
 1.966874e-008  0.0000e+000  1.5598e+000
 1.986874e-008  0.0000e+000  1.5598e+000
 2.000000e-008  0.0000e+000  1.5598e+000
 2.002500e-008  8.2500e-001  1.9175e+000
 2.003750e-008  1.2375e+000  2.0506e+000
 2.005113e-008  1.6875e+000  2.1824e+000
 2.006441e-008  2.1257e+000  2.2763e+000
 2.007912e-008  2.6110e+000  2.3992e+000
 2.009627e-008  3.1771e+000  2.4889e+000
 2.010000e-008  3.3000e+000  2.4985e+000
 2.010970e-008  3.3000e+000  2.3929e+000
 2.011455e-008  3.3000e+000  2.3739e+000
 2.016307e-008  3.3000e+000  2.3594e+000
 2.018732e-008  3.3000e+000  2.3707e+000
 2.036358e-008  3.3000e+000  2.3613e+000
 2.045170e-008  3.3000e+000  2.3701e+000
 2.065170e-008  3.3000e+000  2.3619e+000
 2.085170e-008  3.3000e+000  2.3698e+000
 2.105170e-008  3.3000e+000  2.3622e+000
 2.125170e-008  3.3000e+000  2.3694e+000
 2.145170e-008  3.3000e+000  2.3624e+000
 2.165170e-008  3.3000e+000  2.3692e+000
 2.185170e-008  3.3000e+000  2.3627e+000
 2.205170e-008  3.3000e+000  2.3689e+000
 2.225170e-008  3.3000e+000  2.3629e+000
 2.245170e-008  3.3000e+000  2.3687e+000
 2.265170e-008  3.3000e+000  2.3631e+000
 2.285170e-008  3.3000e+000  2.3685e+000
 2.305170e-008  3.3000e+000  2.3633e+000
 2.325170e-008  3.3000e+000  2.3683e+000
 2.345170e-008  3.3000e+000  2.3635e+000
 2.365170e-008  3.3000e+000  2.3681e+000
 2.385170e-008  3.3000e+000  2.3637e+000
 2.405170e-008  3.3000e+000  2.3679e+000
 2.425170e-008  3.3000e+000  2.3638e+000
 2.445170e-008  3.3000e+000  2.3677e+000
 2.465170e-008  3.3000e+000  2.3640e+000
 2.485170e-008  3.3000e+000  2.3676e+000
 2.505170e-008  3.3000e+000  2.3641e+000
 2.525170e-008  3.3000e+000  2.3675e+000
 2.545170e-008  3.3000e+000  2.3642e+000
 2.565170e-008  3.3000e+000  2.3673e+000
 2.585170e-008  3.3000e+000  2.3644e+000
 2.605170e-008  3.3000e+000  2.3672e+000
 2.625170e-008  3.3000e+000  2.3645e+000
 2.645170e-008  3.3000e+000  2.3671e+000
 2.665170e-008  3.3000e+000  2.3646e+000
 2.685170e-008  3.3000e+000  2.3670e+000
 2.705170e-008  3.3000e+000  2.3647e+000
 2.725170e-008  3.3000e+000  2.3669e+000
 2.745170e-008  3.3000e+000  2.3647e+000
 2.765170e-008  3.3000e+000  2.3668e+000
 2.785170e-008  3.3000e+000  2.3648e+000
 2.805170e-008  3.3000e+000  2.3668e+000
 2.825170e-008  3.3000e+000  2.3649e+000
 2.845170e-008  3.3000e+000  2.3667e+000
 2.865170e-008  3.3000e+000  2.3650e+000
 2.885170e-008  3.3000e+000  2.3666e+000
 2.905170e-008  3.3000e+000  2.3650e+000
 2.925170e-008  3.3000e+000  2.3665e+000
 2.945170e-008  3.3000e+000  2.3651e+000
 2.965170e-008  3.3000e+000  2.3665e+000
 2.985170e-008  3.3000e+000  2.3651e+000
 3.005170e-008  3.3000e+000  2.3664e+000
 3.025170e-008  3.3000e+000  2.3652e+000
 3.045170e-008  3.3000e+000  2.3664e+000
 3.065170e-008  3.3000e+000  2.3652e+000
 3.085170e-008  3.3000e+000  2.3663e+000
 3.105170e-008  3.3000e+000  2.3653e+000
 3.125170e-008  3.3000e+000  2.3663e+000
 3.145170e-008  3.3000e+000  2.3653e+000
 3.165170e-008  3.3000e+000  2.3663e+000
 3.185170e-008  3.3000e+000  2.3654e+000
 3.205170e-008  3.3000e+000  2.3662e+000
 3.225170e-008  3.3000e+000  2.3654e+000
 3.245170e-008  3.3000e+000  2.3662e+000
 3.265170e-008  3.3000e+000  2.3654e+000
 3.285170e-008  3.3000e+000  2.3661e+000
 3.305170e-008  3.3000e+000  2.3655e+000
 3.325170e-008  3.3000e+000  2.3661e+000
 3.345170e-008  3.3000e+000  2.3655e+000
 3.365170e-008  3.3000e+000  2.3661e+000
 3.385170e-008  3.3000e+000  2.3655e+000
 3.405170e-008  3.3000e+000  2.3661e+000
 3.425170e-008  3.3000e+000  2.3655e+000
 3.445170e-008  3.3000e+000  2.3660e+000
 3.465170e-008  3.3000e+000  2.3656e+000
 3.485170e-008  3.3000e+000  2.3660e+000
 3.505170e-008  3.3000e+000  2.3656e+000
 3.525170e-008  3.3000e+000  2.3660e+000
 3.545170e-008  3.3000e+000  2.3656e+000
 3.565170e-008  3.3000e+000  2.3660e+000
 3.585170e-008  3.3000e+000  2.3656e+000
 3.605170e-008  3.3000e+000  2.3660e+000
 3.625170e-008  3.3000e+000  2.3656e+000
 3.645170e-008  3.3000e+000  2.3660e+000
 3.665170e-008  3.3000e+000  2.3656e+000
 3.685170e-008  3.3000e+000  2.3659e+000
 3.705170e-008  3.3000e+000  2.3657e+000
 3.725170e-008  3.3000e+000  2.3659e+000
 3.745170e-008  3.3000e+000  2.3657e+000
 3.765170e-008  3.3000e+000  2.3659e+000
 3.785170e-008  3.3000e+000  2.3657e+000
 3.805170e-008  3.3000e+000  2.3659e+000
 3.825170e-008  3.3000e+000  2.3657e+000
 3.845170e-008  3.3000e+000  2.3659e+000
 3.865170e-008  3.3000e+000  2.3657e+000
 3.885170e-008  3.3000e+000  2.3659e+000
 3.905170e-008  3.3000e+000  2.3657e+000
 3.925170e-008  3.3000e+000  2.3659e+000
 3.945170e-008  3.3000e+000  2.3657e+000
 3.965170e-008  3.3000e+000  2.3659e+000
 3.985170e-008  3.3000e+000  2.3657e+000
 4.005170e-008  3.3000e+000  2.3659e+000
 4.025170e-008  3.3000e+000  2.3657e+000
 4.045170e-008  3.3000e+000  2.3659e+000
 4.065170e-008  3.3000e+000  2.3657e+000
 4.085170e-008  3.3000e+000  2.3659e+000
 4.105170e-008  3.3000e+000  2.3657e+000
 4.125170e-008  3.3000e+000  2.3659e+000
 4.145170e-008  3.3000e+000  2.3657e+000
 4.165170e-008  3.3000e+000  2.3658e+000
 4.185170e-008  3.3000e+000  2.3657e+000
 4.205170e-008  3.3000e+000  2.3658e+000
 4.225170e-008  3.3000e+000  2.3658e+000
 4.245170e-008  3.3000e+000  2.3658e+000
 4.265170e-008  3.3000e+000  2.3658e+000
 4.285170e-008  3.3000e+000  2.3658e+000
 4.305170e-008  3.3000e+000  2.3658e+000
 4.325170e-008  3.3000e+000  2.3658e+000
 4.345170e-008  3.3000e+000  2.3658e+000
 4.365170e-008  3.3000e+000  2.3658e+000
 4.385170e-008  3.3000e+000  2.3658e+000
 4.405170e-008  3.3000e+000  2.3658e+000
 4.425170e-008  3.3000e+000  2.3658e+000
 4.445170e-008  3.3000e+000  2.3658e+000
 4.465170e-008  3.3000e+000  2.3658e+000
 4.485170e-008  3.3000e+000  2.3658e+000
 4.505170e-008  3.3000e+000  2.3658e+000
 4.525170e-008  3.3000e+000  2.3658e+000
 4.545170e-008  3.3000e+000  2.3658e+000
 4.565170e-008  3.3000e+000  2.3658e+000
 4.585170e-008  3.3000e+000  2.3658e+000
 4.605170e-008  3.3000e+000  2.3658e+000
 4.625170e-008  3.3000e+000  2.3658e+000
 4.645170e-008  3.3000e+000  2.3658e+000
 4.665170e-008  3.3000e+000  2.3658e+000
 4.685170e-008  3.3000e+000  2.3658e+000
 4.705170e-008  3.3000e+000  2.3658e+000
 4.725170e-008  3.3000e+000  2.3658e+000
 4.745170e-008  3.3000e+000  2.3658e+000
 4.765170e-008  3.3000e+000  2.3658e+000
 4.785170e-008  3.3000e+000  2.3658e+000
 4.805170e-008  3.3000e+000  2.3658e+000
 4.825170e-008  3.3000e+000  2.3658e+000
 4.845170e-008  3.3000e+000  2.3658e+000
 4.865170e-008  3.3000e+000  2.3658e+000
 4.885170e-008  3.3000e+000  2.3658e+000
 4.905170e-008  3.3000e+000  2.3658e+000
 4.925170e-008  3.3000e+000  2.3658e+000
 4.945170e-008  3.3000e+000  2.3658e+000
 4.965170e-008  3.3000e+000  2.3658e+000
 4.985170e-008  3.3000e+000  2.3658e+000
 5.000000e-008  3.3000e+000  2.3658e+000
 5.002500e-008  2.4750e+000  2.0994e+000
 5.003750e-008  2.0625e+000  1.9368e+000
 5.006112e-008  1.2829e+000  1.6920e+000
 5.007293e-008  8.9306e-001  1.5579e+000
 5.007884e-008  6.9816e-001  1.5032e+000
 5.008688e-008  4.3281e-001  1.4657e+000
 5.0090905e-008  3.0013e-001  1.4632e+000
 5.009753e-008  8.1207e-002  1.4596e+000
 5.0100000e-008  0.0000e+000  1.4583e+000
 5.010519e-008  0.0000e+000  1.5005e+000
 5.015709e-008  0.0000e+000  1.5491e+000
 5.018304e-008  0.0000e+000  1.5604e+000
 5.033589e-008  0.0000e+000  1.5593e+000
 5.041232e-008  0.0000e+000  1.5600e+000
 5.061232e-008  0.0000e+000  1.5596e+000
 5.081232e-008  0.0000e+000  1.5599e+000
 5.101232e-008  0.0000e+000  1.5597e+000
 5.121232e-008  0.0000e+000  1.5599e+000
 5.141232e-008  0.0000e+000  1.5597e+000
 5.161232e-008  0.0000e+000  1.5599e+000
 5.181232e-008  0.0000e+000  1.5598e+000
 5.201232e-008  0.0000e+000  1.5598e+000
 5.221232e-008  0.0000e+000  1.5598e+000
 5.241232e-008  0.0000e+000  1.5598e+000
 5.261232e-008  0.0000e+000  1.5598e+000
 5.281232e-008  0.0000e+000  1.5598e+000
 5.301232e-008  0.0000e+000  1.5598e+000
 5.321232e-008  0.0000e+000  1.5598e+000
 5.341232e-008  0.0000e+000  1.5598e+000
 5.361232e-008  0.0000e+000  1.5598e+000
 5.381232e-008  0.0000e+000  1.5598e+000
 5.401232e-008  0.0000e+000  1.5598e+000
 5.421232e-008  0.0000e+000  1.5598e+000
 5.441232e-008  0.0000e+000  1.5598e+000
 5.461232e-008  0.0000e+000  1.5598e+000
 5.481232e-008  0.0000e+000  1.5598e+000
 5.501232e-008  0.0000e+000  1.5598e+000
 5.521232e-008  0.0000e+000  1.5598e+000
 5.541232e-008  0.0000e+000  1.5598e+000
 5.561232e-008  0.0000e+000  1.5598e+000
 5.581232e-008  0.0000e+000  1.5598e+000
 5.601232e-008  0.0000e+000  1.5598e+000
 5.621232e-008  0.0000e+000  1.5598e+000
 5.641232e-008  0.0000e+000  1.5598e+000
 5.661232e-008  0.0000e+000  1.5598e+000
 5.681232e-008  0.0000e+000  1.5598e+000
 5.701232e-008  0.0000e+000  1.5598e+000
 5.721232e-008  0.0000e+000  1.5598e+000
 5.741232e-008  0.0000e+000  1.5598e+000
 5.761232e-008  0.0000e+000  1.5598e+000
 5.781232e-008  0.0000e+000  1.5598e+000
 5.801232e-008  0.0000e+000  1.5598e+000
 5.821232e-008  0.0000e+000  1.5598e+000
 5.841232e-008  0.0000e+000  1.5598e+000
 5.861232e-008  0.0000e+000  1.5598e+000
 5.881232e-008  0.0000e+000  1.5598e+000
 5.901232e-008  0.0000e+000  1.5598e+000
 5.921232e-008  0.0000e+000  1.5598e+000
 5.941232e-008  0.0000e+000  1.5598e+000
 5.961232e-008  0.0000e+000  1.5598e+000
 5.981232e-008  0.0000e+000  1.5598e+000
 6.000000e-008  0.0000e+000  1.5598e+000
 6.002500e-008  8.2500e-001  1.9175e+000
 6.003750e-008  1.2375e+000  2.0506e+000
 6.005113e-008  1.6875e+000  2.1824e+000
 6.006441e-008  2.1257e+000  2.2763e+000
 6.007912e-008  2.6110e+000  2.3992e+000
 6.009627e-008  3.1771e+000  2.4889e+000
 6.0100000e-008  3.3000e+000  2.4985e+000
 6.010970e-008  3.3000e+000  2.3929e+000
 6.0114554e-008  3.3000e+000  2.3739e+000
 6.016307e-008  3.3000e+000  2.3594e+000
 6.018732e-008  3.3000e+000  2.3707e+000
 6.036358e-008  3.3000e+000  2.3613e+000
 6.045170e-008  3.3000e+000  2.3701e+000
 6.065170e-008  3.3000e+000  2.3619e+000
 6.085170e-008  3.3000e+000  2.3698e+000
 6.105170e-008  3.3000e+000  2.3622e+000
 6.125170e-008  3.3000e+000  2.3694e+000
 6.145170e-008  3.3000e+000  2.3624e+000
 6.165170e-008  3.3000e+000  2.3692e+000
 6.185170e-008  3.3000e+000  2.3627e+000
 6.205170e-008  3.3000e+000  2.3689e+000
 6.225170e-008  3.3000e+000  2.3629e+000
 6.245170e-008  3.3000e+000  2.3687e+000
 6.265170e-008  3.3000e+000  2.3631e+000
 6.285170e-008  3.3000e+000  2.3685e+000
 6.305170e-008  3.3000e+000  2.3633e+000
 6.325170e-008  3.3000e+000  2.3683e+000
 6.345170e-008  3.3000e+000  2.3635e+000
 6.365170e-008  3.3000e+000  2.3681e+000
 6.385170e-008  3.3000e+000  2.3637e+000
 6.405170e-008  3.3000e+000  2.3679e+000
 6.425170e-008  3.3000e+000  2.3638e+000
 6.445170e-008  3.3000e+000  2.3677e+000
 6.465170e-008  3.3000e+000  2.3640e+000
 6.485170e-008  3.3000e+000  2.3676e+000
 6.505170e-008  3.3000e+000  2.3641e+000
 6.525170e-008  3.3000e+000  2.3675e+000
 6.545170e-008  3.3000e+000  2.3642e+000
 6.565170e-008  3.3000e+000  2.3673e+000
 6.585170e-008  3.3000e+000  2.3644e+000
 6.605170e-008  3.3000e+000  2.3672e+000
 6.625170e-008  3.3000e+000  2.3645e+000
 6.645170e-008  3.3000e+000  2.3671e+000
 6.665170e-008  3.3000e+000  2.3646e+000
 6.685170e-008  3.3000e+000  2.3670e+000
 6.705170e-008  3.3000e+000  2.3647e+000
 6.725170e-008  3.3000e+000  2.3669e+000
 6.745170e-008  3.3000e+000  2.3647e+000
 6.765170e-008  3.3000e+000  2.3668e+000
 6.785170e-008  3.3000e+000  2.3648e+000
 6.805170e-008  3.3000e+000  2.3668e+000
 6.825170e-008  3.3000e+000  2.3649e+000
 6.845170e-008  3.3000e+000  2.3667e+000
 6.865170e-008  3.3000e+000  2.3650e+000
 6.885170e-008  3.3000e+000  2.3666e+000
 6.905170e-008  3.3000e+000  2.3650e+000
 6.925170e-008  3.3000e+000  2.3665e+000
 6.945170e-008  3.3000e+000  2.3651e+000
 6.965170e-008  3.3000e+000  2.3665e+000
 6.985170e-008  3.3000e+000  2.3651e+000
 7.005170e-008  3.3000e+000  2.3664e+000
 7.025170e-008  3.3000e+000  2.3652e+000
 7.045170e-008  3.3000e+000  2.3664e+000
 7.065170e-008  3.3000e+000  2.3652e+000
 7.085170e-008  3.3000e+000  2.3663e+000
 7.105170e-008  3.3000e+000  2.3653e+000
 7.125170e-008  3.3000e+000  2.3663e+000
 7.145170e-008  3.3000e+000  2.3653e+000
 7.165170e-008  3.3000e+000  2.3663e+000
 7.185170e-008  3.3000e+000  2.3654e+000
 7.205170e-008  3.3000e+000  2.3662e+000
 7.225170e-008  3.3000e+000  2.3654e+000
 7.245170e-008  3.3000e+000  2.3662e+000
 7.265170e-008  3.3000e+000  2.3654e+000
 7.285170e-008  3.3000e+000  2.3661e+000
 7.305170e-008  3.3000e+000  2.3655e+000
 7.325170e-008  3.3000e+000  2.3661e+000
 7.345170e-008  3.3000e+000  2.3655e+000
 7.365170e-008  3.3000e+000  2.3661e+000
 7.385170e-008  3.3000e+000  2.3655e+000
 7.405170e-008  3.3000e+000  2.3661e+000
 7.425170e-008  3.3000e+000  2.3655e+000
 7.445170e-008  3.3000e+000  2.3660e+000
 7.465170e-008  3.3000e+000  2.3656e+000
 7.485170e-008  3.3000e+000  2.3660e+000
 7.505170e-008  3.3000e+000  2.3656e+000
 7.525170e-008  3.3000e+000  2.3660e+000
 7.545170e-008  3.3000e+000  2.3656e+000
 7.565170e-008  3.3000e+000  2.3660e+000
 7.585170e-008  3.3000e+000  2.3656e+000
 7.605170e-008  3.3000e+000  2.3660e+000
 7.625170e-008  3.3000e+000  2.3656e+000
 7.645170e-008  3.3000e+000  2.3660e+000
 7.665170e-008  3.3000e+000  2.3656e+000
 7.685170e-008  3.3000e+000  2.3659e+000
