* T-Spice 13.00 Simulation	Sat May 04 23:19:47 2019	C:\Users\makif\Google Drive\TEZ ÇALIÞMAM\çizim\Counter_TDC\Counter_TDC\vernier_ring_TDC.sp
* Command line: tspice -o "C:\Users\makif\Google Drive\TEZ ÇALIÞMAM\çizim\Counter_TDC\Counter_TDC\vernier_ring_TDC.out" "C:\Users\makif\Google Drive\TEZ ÇALIÞMAM\çizim\Counter_TDC\Counter_TDC\vernier_ring_TDC.sp" 
* T-Spice Win32 13.00.20080321.01:01:33
* Warning : "130nm.md" line 1 Invalid binned model NMOS
*         : "130nm.md" line 1 Binned models must define LMIN, LMAX, WMIN, and WMAX, and have a name suffix of .# (e.g. nch.1)
* Warning : "130nm.md" line 142 Invalid binned model PMOS
*         : "130nm.md" line 142 Binned models must define LMIN, LMAX, WMIN, and WMAX, and have a name suffix of .# (e.g. nch.1)
* Warning : Device Xencoder8x3_1.XINV_1.MN1 - Acde = 0.3 is too small.

*SEDIT: Alter blocks = 0

* Accuracy and Convergence options:
* numndset|dchold = 100
* 
* Timestep and Integration options:
*  relq|relchgtol = 0.0005
* 
* Model Evaluation options:
*            dcap = 2                    defnrb = 0 [sq]               defnrd = 0 [sq]
*          defnrs = 0 [sq]                 tnom = 25 [deg C]
* 
* General options:
*            temp = 25 [deg C]          threads = 8
* 
* Output options:
*           acout = 1                    ingold = 0
* 


*  Device and node counts:
*             MOSFETs - 345               MOSFET geometries - 6       
*                BJTs - 0                             JFETs - 0       
*             MESFETs - 0                            Diodes - 0       
*          Capacitors - 0                         Resistors - 0       
*           Inductors - 0                  Mutual inductors - 0       
*  Transmission lines - 0        Coupled transmission lines - 0       
*     Voltage sources - 3                   Current sources - 0       
*                VCVS - 0                              VCCS - 0       
*                CCVS - 0                              CCCS - 0       
*    V-control switch - 0                  I-control switch - 0       
*       Macro devices - 0        External C model instances - 0       
*         HDL devices - 0       
*         Subcircuits - 0              Subcircuit instances - 85      
*   Independent nodes - 858                  Boundary nodes - 4       
*         Total nodes - 862     

* *** 4 WARNING MESSAGES GENERATED DURING SETUP


*SEDIT: Alter=0
*SEDIT: Analysis types DCOP 0 ACMODEL 0 AC 0 TRANSIENT 1 TRANSFER 0 NOISE 0 

*WEDIT: .tran   1e-010   1e-007
TRANSIENT ANALYSIS
Time<s>        v(D0,Gnd)<V>  v(D1,Gnd)<V>  v(D2,Gnd)<V>
 0.000000e+000  3.2982e+000  3.2774e+000  2.9338e+000
 6.250000e-012  3.2982e+000  3.2774e+000  2.9338e+000
 6.875000e-011  3.2982e+000  3.2774e+000  2.9338e+000
 2.000000e-010  3.2982e+000  3.2774e+000  2.9338e+000
 2.250000e-010  3.2982e+000  3.2774e+000  2.9338e+000
 4.250000e-010  3.2982e+000  3.2774e+000  2.9338e+000
 6.250000e-010  3.2982e+000  3.2774e+000  2.9338e+000
 8.250000e-010  3.2982e+000  3.2774e+000  2.9338e+000
 1.025000e-009  3.2982e+000  3.2774e+000  2.9338e+000
 1.225000e-009  3.2982e+000  3.2774e+000  2.9338e+000
 1.425000e-009  3.2982e+000  3.2774e+000  2.9338e+000
 1.625000e-009  3.2982e+000  3.2774e+000  2.9338e+000
 1.825000e-009  3.2982e+000  3.2774e+000  2.9338e+000
 2.025000e-009  3.2982e+000  3.2774e+000  2.9338e+000
 2.225000e-009  3.2982e+000  3.2774e+000  2.9338e+000
 2.425000e-009  3.2982e+000  3.2774e+000  2.9338e+000
 2.625000e-009  3.2982e+000  3.2774e+000  2.9338e+000
 2.825000e-009  3.2982e+000  3.2774e+000  2.9338e+000
 3.025000e-009  3.2982e+000  3.2774e+000  2.9338e+000
 3.225000e-009  3.2982e+000  3.2774e+000  2.9338e+000
 3.425000e-009  3.2982e+000  3.2774e+000  2.9338e+000
 3.625000e-009  3.2982e+000  3.2774e+000  2.9338e+000
 3.825000e-009  3.2982e+000  3.2774e+000  2.9338e+000
 4.025000e-009  3.2982e+000  3.2774e+000  2.9338e+000
 4.225000e-009  3.2982e+000  3.2774e+000  2.9338e+000
 4.425000e-009  3.2982e+000  3.2774e+000  2.9338e+000
 4.625000e-009  3.2982e+000  3.2774e+000  2.9338e+000
 4.825000e-009  3.2982e+000  3.2774e+000  2.9338e+000
 5.025000e-009  3.2982e+000  3.2774e+000  2.9338e+000
 5.225000e-009  3.2982e+000  3.2774e+000  2.9338e+000
 5.425000e-009  3.2982e+000  3.2774e+000  2.9338e+000
 5.625000e-009  3.2982e+000  3.2774e+000  2.9338e+000
 5.825000e-009  3.2982e+000  3.2774e+000  2.9338e+000
 6.025000e-009  3.2982e+000  3.2774e+000  2.9338e+000
 6.225000e-009  3.2982e+000  3.2774e+000  2.9338e+000
 6.425000e-009  3.2982e+000  3.2774e+000  2.9338e+000
 6.625000e-009  3.2982e+000  3.2774e+000  2.9338e+000
 6.825000e-009  3.2982e+000  3.2774e+000  2.9338e+000
 7.025000e-009  3.2982e+000  3.2774e+000  2.9338e+000
 7.225000e-009  3.2982e+000  3.2774e+000  2.9338e+000
 7.425000e-009  3.2982e+000  3.2774e+000  2.9338e+000
 7.625000e-009  3.2982e+000  3.2774e+000  2.9338e+000
 7.825000e-009  3.2982e+000  3.2774e+000  2.9338e+000
 8.025000e-009  3.2982e+000  3.2774e+000  2.9338e+000
 8.225000e-009  3.2982e+000  3.2774e+000  2.9338e+000
 8.425000e-009  3.2982e+000  3.2774e+000  2.9338e+000
 8.625000e-009  3.2982e+000  3.2774e+000  2.9338e+000
 8.825000e-009  3.2982e+000  3.2774e+000  2.9338e+000
 9.025000e-009  3.2982e+000  3.2774e+000  2.9338e+000
 9.225000e-009  3.2982e+000  3.2774e+000  2.9338e+000
 9.425000e-009  3.2982e+000  3.2774e+000  2.9338e+000
 9.625000e-009  3.2982e+000  3.2774e+000  2.9338e+000
 9.825000e-009  3.2982e+000  3.2774e+000  2.9338e+000
 1.002500e-008  3.2982e+000  3.2774e+000  2.9338e+000
 1.022500e-008  3.2982e+000  3.2774e+000  2.9338e+000
 1.042500e-008  3.2982e+000  3.2774e+000  2.9338e+000
 1.062500e-008  3.2982e+000  3.2774e+000  2.9338e+000
 1.082500e-008  3.2982e+000  3.2774e+000  2.9338e+000
 1.102500e-008  3.2982e+000  3.2774e+000  2.9338e+000
 1.122500e-008  3.2982e+000  3.2774e+000  2.9338e+000
 1.142500e-008  3.2982e+000  3.2774e+000  2.9338e+000
 1.162500e-008  3.2982e+000  3.2774e+000  2.9338e+000
 1.182500e-008  3.2982e+000  3.2774e+000  2.9338e+000
 1.202500e-008  3.2982e+000  3.2774e+000  2.9338e+000
 1.222500e-008  3.2982e+000  3.2774e+000  2.9338e+000
 1.242500e-008  3.2982e+000  3.2774e+000  2.9338e+000
 1.262500e-008  3.2982e+000  3.2774e+000  2.9338e+000
 1.282500e-008  3.2982e+000  3.2774e+000  2.9338e+000
 1.302500e-008  3.2982e+000  3.2774e+000  2.9338e+000
 1.322500e-008  3.2982e+000  3.2774e+000  2.9338e+000
 1.342500e-008  3.2982e+000  3.2774e+000  2.9338e+000
 1.362500e-008  3.2982e+000  3.2774e+000  2.9338e+000
 1.382500e-008  3.2982e+000  3.2774e+000  2.9338e+000
 1.402500e-008  3.2982e+000  3.2774e+000  2.9338e+000
 1.422500e-008  3.2982e+000  3.2774e+000  2.9338e+000
 1.442500e-008  3.2982e+000  3.2774e+000  2.9338e+000
 1.462500e-008  3.2982e+000  3.2774e+000  2.9338e+000
 1.482500e-008  3.2982e+000  3.2774e+000  2.9338e+000
 1.502500e-008  3.2982e+000  3.2774e+000  2.9338e+000
 1.522500e-008  3.2982e+000  3.2774e+000  2.9338e+000
 1.542500e-008  3.2982e+000  3.2774e+000  2.9338e+000
 1.562500e-008  3.2982e+000  3.2774e+000  2.9338e+000
 1.582500e-008  3.2982e+000  3.2774e+000  2.9338e+000
 1.602500e-008  3.2982e+000  3.2774e+000  2.9338e+000
 1.622499e-008  3.2982e+000  3.2774e+000  2.9338e+000
 1.642499e-008  3.2982e+000  3.2774e+000  2.9338e+000
 1.662499e-008  3.2982e+000  3.2774e+000  2.9338e+000
 1.682499e-008  3.2982e+000  3.2774e+000  2.9338e+000
 1.702499e-008  3.2982e+000  3.2774e+000  2.9338e+000
 1.722499e-008  3.2982e+000  3.2774e+000  2.9338e+000
 1.742499e-008  3.2982e+000  3.2774e+000  2.9338e+000
 1.762499e-008  3.2982e+000  3.2774e+000  2.9338e+000
 1.782499e-008  3.2982e+000  3.2774e+000  2.9338e+000
 1.802499e-008  3.2982e+000  3.2774e+000  2.9338e+000
 1.822499e-008  3.2982e+000  3.2774e+000  2.9338e+000
 1.842499e-008  3.2982e+000  3.2774e+000  2.9338e+000
 1.862499e-008  3.2982e+000  3.2774e+000  2.9338e+000
 1.882499e-008  3.2982e+000  3.2774e+000  2.9338e+000
 1.902499e-008  3.2982e+000  3.2774e+000  2.9338e+000
 1.922499e-008  3.2982e+000  3.2774e+000  2.9338e+000
 1.942499e-008  3.2982e+000  3.2774e+000  2.9338e+000
 1.962499e-008  3.2982e+000  3.2774e+000  2.9338e+000
 1.982499e-008  3.2982e+000  3.2774e+000  2.9338e+000
 2.002499e-008  3.2982e+000  3.2774e+000  2.9338e+000
 2.022499e-008  3.2982e+000  3.2774e+000  2.9338e+000
 2.042499e-008  3.2982e+000  3.2774e+000  2.9338e+000
 2.062499e-008  3.2982e+000  3.2774e+000  2.9338e+000
 2.082499e-008  3.2982e+000  3.2774e+000  2.9338e+000
 2.102499e-008  3.2982e+000  3.2774e+000  2.9338e+000
 2.122499e-008  3.2982e+000  3.2774e+000  2.9338e+000
 2.142499e-008  3.2982e+000  3.2774e+000  2.9338e+000
 2.162499e-008  3.2982e+000  3.2774e+000  2.9338e+000
 2.182499e-008  3.2982e+000  3.2774e+000  2.9338e+000
 2.202499e-008  3.2982e+000  3.2774e+000  2.9338e+000
 2.222499e-008  3.2982e+000  3.2774e+000  2.9338e+000
 2.242499e-008  3.2982e+000  3.2774e+000  2.9338e+000
 2.262499e-008  3.2982e+000  3.2774e+000  2.9338e+000
 2.282499e-008  3.2982e+000  3.2774e+000  2.9338e+000
 2.302499e-008  3.2982e+000  3.2774e+000  2.9338e+000
 2.322499e-008  3.2982e+000  3.2774e+000  2.9338e+000
 2.342499e-008  3.2982e+000  3.2774e+000  2.9338e+000
 2.362499e-008  3.2982e+000  3.2774e+000  2.9338e+000
 2.382499e-008  3.2982e+000  3.2774e+000  2.9338e+000
 2.402499e-008  3.2982e+000  3.2774e+000  2.9338e+000
 2.422499e-008  3.2982e+000  3.2774e+000  2.9338e+000
 2.442499e-008  3.2982e+000  3.2774e+000  2.9338e+000
 2.462499e-008  3.2982e+000  3.2774e+000  2.9338e+000
 2.482499e-008  3.2982e+000  3.2774e+000  2.9338e+000
 2.502499e-008  3.2982e+000  3.2774e+000  2.9338e+000
 2.522499e-008  3.2982e+000  3.2774e+000  2.9338e+000
 2.542499e-008  3.2982e+000  3.2774e+000  2.9338e+000
 2.562499e-008  3.2982e+000  3.2774e+000  2.9338e+000
 2.582499e-008  3.2982e+000  3.2774e+000  2.9338e+000
 2.602499e-008  3.2982e+000  3.2774e+000  2.9338e+000
 2.622499e-008  3.2982e+000  3.2774e+000  2.9338e+000
 2.642499e-008  3.2982e+000  3.2774e+000  2.9338e+000
 2.662499e-008  3.2982e+000  3.2774e+000  2.9338e+000
 2.682499e-008  3.2982e+000  3.2774e+000  2.9338e+000
 2.702499e-008  3.2982e+000  3.2774e+000  2.9338e+000
 2.722499e-008  3.2982e+000  3.2774e+000  2.9338e+000
 2.742499e-008  3.2982e+000  3.2774e+000  2.9338e+000
 2.762499e-008  3.2982e+000  3.2774e+000  2.9338e+000
 2.782499e-008  3.2982e+000  3.2774e+000  2.9338e+000
 2.802499e-008  3.2982e+000  3.2774e+000  2.9338e+000
 2.822499e-008  3.2982e+000  3.2774e+000  2.9338e+000
 2.842499e-008  3.2982e+000  3.2774e+000  2.9338e+000
 2.862499e-008  3.2982e+000  3.2774e+000  2.9338e+000
 2.882499e-008  3.2982e+000  3.2774e+000  2.9338e+000
 2.902499e-008  3.2982e+000  3.2774e+000  2.9338e+000
 2.922499e-008  3.2982e+000  3.2774e+000  2.9338e+000
 2.942499e-008  3.2982e+000  3.2774e+000  2.9338e+000
 2.962499e-008  3.2982e+000  3.2774e+000  2.9338e+000
 2.982499e-008  3.2982e+000  3.2774e+000  2.9338e+000
 3.000000e-008  3.2982e+000  3.2774e+000  2.9338e+000
 3.0001000e-008  3.2982e+000  3.2774e+000  2.9338e+000
 3.0001315e-008  3.2982e+000  3.2774e+000  2.9338e+000
 3.0003156e-008  3.2982e+000  3.2774e+000  2.9338e+000
 3.0005234e-008  3.2982e+000  3.2774e+000  2.9338e+000
 3.0007312e-008  3.2982e+000  3.2774e+000  2.9338e+000
 3.0009831e-008  3.2982e+000  3.2774e+000  2.9338e+000
 3.001362e-008  3.2982e+000  3.2774e+000  2.9338e+000
 3.002037e-008  3.2982e+000  3.2774e+000  2.9338e+000
 3.003430e-008  3.2982e+000  3.2774e+000  2.9338e+000
 3.005638e-008  3.2982e+000  3.2774e+000  2.9338e+000
 3.008466e-008  3.2982e+000  3.2774e+000  2.9338e+000
 3.011292e-008  3.2982e+000  3.2774e+000  2.9338e+000
 3.013362e-008  3.2982e+000  3.2774e+000  2.9338e+000
 3.014070e-008  3.2982e+000  3.2774e+000  2.9338e+000
 3.014541e-008  3.2982e+000  3.2774e+000  2.9338e+000
 3.015082e-008  3.2982e+000  3.2774e+000  2.9338e+000
 3.015810e-008  3.2982e+000  3.2774e+000  2.9338e+000
 3.016718e-008  3.2982e+000  3.2774e+000  2.9338e+000
 3.017735e-008  3.2982e+000  3.2774e+000  2.9338e+000
 3.018250e-008  3.2982e+000  3.2774e+000  2.9338e+000
 3.018719e-008  3.2982e+000  3.2774e+000  2.9338e+000
 3.019276e-008  3.2982e+000  3.2774e+000  2.9338e+000
 3.019816e-008  3.2982e+000  3.2774e+000  2.9338e+000
 3.0200000e-008  3.2982e+000  3.2774e+000  2.9338e+000
 3.0201000e-008  3.2982e+000  3.2774e+000  2.9338e+000
 3.0201315e-008  3.2982e+000  3.2774e+000  2.9338e+000
 3.0203141e-008  3.2982e+000  3.2774e+000  2.9338e+000
 3.0205191e-008  3.2982e+000  3.2774e+000  2.9338e+000
 3.0207238e-008  3.2982e+000  3.2774e+000  2.9338e+000
 3.0209712e-008  3.2982e+000  3.2774e+000  2.9338e+000
 3.021342e-008  3.2982e+000  3.2774e+000  2.9338e+000
 3.021956e-008  3.2982e+000  3.2774e+000  2.9338e+000
 3.022758e-008  3.2982e+000  3.2774e+000  2.9338e+000
 3.023643e-008  3.2982e+000  3.2774e+000  2.9338e+000
 3.024615e-008  3.2982e+000  3.2774e+000  2.9338e+000
 3.025161e-008  3.2982e+000  3.2774e+000  2.9338e+000
 3.025581e-008  3.2982e+000  3.2774e+000  2.9338e+000
 3.026053e-008  3.2982e+000  3.2774e+000  2.9338e+000
 3.026596e-008  3.2982e+000  3.2774e+000  2.9338e+000
 3.027106e-008  3.2982e+000  3.2774e+000  2.9338e+000
 3.027598e-008  3.2983e+000  3.2774e+000  2.9338e+000
 3.028154e-008  3.2983e+000  3.2774e+000  2.9338e+000
 3.028867e-008  3.2982e+000  3.2774e+000  2.9338e+000
 3.029909e-008  3.2982e+000  3.2774e+000  2.9338e+000
 3.030783e-008  3.2982e+000  3.2774e+000  2.9338e+000
 3.031501e-008  3.2981e+000  3.2774e+000  2.9338e+000
 3.032181e-008  3.2979e+000  3.2774e+000  2.9338e+000
 3.032713e-008  3.2977e+000  3.2774e+000  2.9338e+000
 3.033235e-008  3.2977e+000  3.2774e+000  2.9338e+000
 3.033721e-008  3.2977e+000  3.2774e+000  2.9338e+000
 3.034206e-008  3.2978e+000  3.2774e+000  2.9338e+000
 3.034772e-008  3.2979e+000  3.2774e+000  2.9338e+000
 3.035231e-008  3.2980e+000  3.2774e+000  2.9338e+000
 3.035637e-008  3.2979e+000  3.2774e+000  2.9338e+000
 3.036063e-008  3.2976e+000  3.2774e+000  2.9338e+000
 3.0363540e-008  3.2973e+000  3.2774e+000  2.9338e+000
 3.0366431e-008  3.2971e+000  3.2774e+000  2.9338e+000
 3.037011e-008  3.2969e+000  3.2774e+000  2.9338e+000
 3.037538e-008  3.2968e+000  3.2774e+000  2.9338e+000
 3.038129e-008  3.2983e+000  3.2774e+000  2.9338e+000
 3.038512e-008  3.3024e+000  3.2774e+000  2.9338e+000
 3.038841e-008  3.3081e+000  3.2774e+000  2.9338e+000
 3.039240e-008  3.3119e+000  3.2774e+000  2.9338e+000
 3.039752e-008  3.3104e+000  3.2773e+000  2.9337e+000
 3.040418e-008  3.3026e+000  3.2773e+000  2.9337e+000
 3.041213e-008  3.2941e+000  3.2773e+000  2.9337e+000
 3.042082e-008  3.2874e+000  3.2774e+000  2.9338e+000
 3.042832e-008  3.2836e+000  3.2774e+000  2.9339e+000
 3.043406e-008  3.2817e+000  3.2774e+000  2.9339e+000
 3.043979e-008  3.2804e+000  3.2774e+000  2.9339e+000
 3.044743e-008  3.2792e+000  3.2774e+000  2.9339e+000
 3.045697e-008  3.2784e+000  3.2774e+000  2.9339e+000
 3.046540e-008  3.2780e+000  3.2774e+000  2.9339e+000
 3.047269e-008  3.2778e+000  3.2774e+000  2.9339e+000
 3.047875e-008  3.2776e+000  3.2774e+000  2.9339e+000
 3.048437e-008  3.2776e+000  3.2774e+000  2.9339e+000
 3.049071e-008  3.2775e+000  3.2774e+000  2.9339e+000
 3.049887e-008  3.2775e+000  3.2774e+000  2.9339e+000
 3.050478e-008  3.2775e+000  3.2774e+000  2.9338e+000
 3.050968e-008  3.2774e+000  3.2774e+000  2.9338e+000
 3.051554e-008  3.2774e+000  3.2774e+000  2.9338e+000
 3.052167e-008  3.2774e+000  3.2774e+000  2.9338e+000
 3.052750e-008  3.2774e+000  3.2774e+000  2.9338e+000
 3.053233e-008  3.2774e+000  3.2774e+000  2.9338e+000
 3.053675e-008  3.2774e+000  3.2774e+000  2.9338e+000
 3.054116e-008  3.2774e+000  3.2774e+000  2.9338e+000
 3.0544182e-008  3.2774e+000  3.2774e+000  2.9338e+000
 3.0547144e-008  3.2774e+000  3.2774e+000  2.9338e+000
 3.0549920e-008  3.2774e+000  3.2774e+000  2.9338e+000
 3.0552453e-008  3.2774e+000  3.2774e+000  2.9338e+000
 3.0555470e-008  3.2774e+000  3.2774e+000  2.9338e+000
 3.055993e-008  3.2774e+000  3.2774e+000  2.9338e+000
 3.056527e-008  3.2774e+000  3.2774e+000  2.9338e+000
 3.056941e-008  3.2774e+000  3.2774e+000  2.9338e+000
 3.0572395e-008  3.2774e+000  3.2774e+000  2.9338e+000
 3.057553e-008  3.2774e+000  3.2774e+000  2.9338e+000
 3.057914e-008  3.2774e+000  3.2774e+000  2.9338e+000
 3.058357e-008  3.2774e+000  3.2774e+000  2.9338e+000
 3.058927e-008  3.2774e+000  3.2774e+000  2.9338e+000
 3.059499e-008  3.2774e+000  3.2774e+000  2.9338e+000
 3.060025e-008  3.2773e+000  3.2773e+000  2.9338e+000
 3.060600e-008  3.2773e+000  3.2773e+000  2.9338e+000
 3.061123e-008  3.2773e+000  3.2773e+000  2.9338e+000
 3.061589e-008  3.2773e+000  3.2773e+000  2.9338e+000
 3.062013e-008  3.2773e+000  3.2773e+000  2.9338e+000
 3.062458e-008  3.2772e+000  3.2772e+000  2.9338e+000
 3.063008e-008  3.2769e+000  3.2769e+000  2.9338e+000
 3.063611e-008  3.2767e+000  3.2767e+000  2.9338e+000
 3.064124e-008  3.2771e+000  3.2771e+000  2.9339e+000
 3.064521e-008  3.2778e+000  3.2778e+000  2.9339e+000
 3.064943e-008  3.2785e+000  3.2785e+000  2.9339e+000
 3.065448e-008  3.2789e+000  3.2789e+000  2.9339e+000
 3.065896e-008  3.2799e+000  3.2799e+000  2.9339e+000
 3.066313e-008  3.2816e+000  3.2816e+000  2.9339e+000
 3.066769e-008  3.2845e+000  3.2845e+000  2.9339e+000
 3.067156e-008  3.2888e+000  3.2888e+000  2.9338e+000
 3.067541e-008  3.2933e+000  3.2933e+000  2.9338e+000
 3.067964e-008  3.2877e+000  3.2877e+000  2.9336e+000
 3.068371e-008  3.2658e+000  3.2658e+000  2.9334e+000
 3.068782e-008  3.2305e+000  3.2305e+000  2.9333e+000
 3.069246e-008  3.1849e+000  3.1849e+000  2.9332e+000
 3.069812e-008  3.1318e+000  3.1318e+000  2.9334e+000
 3.070573e-008  3.0733e+000  3.0733e+000  2.9336e+000
 3.071495e-008  3.0231e+000  3.0231e+000  2.9340e+000
 3.072191e-008  2.9974e+000  2.9974e+000  2.9342e+000
 3.072733e-008  2.9828e+000  2.9827e+000  2.9342e+000
 3.073206e-008  2.9728e+000  2.9728e+000  2.9343e+000
 3.073683e-008  2.9648e+000  2.9648e+000  2.9343e+000
 3.074120e-008  2.9589e+000  2.9589e+000  2.9343e+000
 3.074584e-008  2.9539e+000  2.9539e+000  2.9343e+000
 3.075033e-008  2.9500e+000  2.9500e+000  2.9343e+000
 3.075397e-008  2.9475e+000  2.9475e+000  2.9343e+000
 3.0756937e-008  2.9457e+000  2.9457e+000  2.9343e+000
 3.0759693e-008  2.9442e+000  2.9442e+000  2.9342e+000
 3.076368e-008  2.9424e+000  2.9424e+000  2.9342e+000
 3.076902e-008  2.9405e+000  2.9405e+000  2.9342e+000
 3.077431e-008  2.9390e+000  2.9390e+000  2.9341e+000
 3.0777365e-008  2.9383e+000  2.9383e+000  2.9341e+000
 3.078044e-008  2.9377e+000  2.9377e+000  2.9341e+000
 3.078441e-008  2.9371e+000  2.9371e+000  2.9341e+000
 3.078820e-008  2.9365e+000  2.9365e+000  2.9340e+000
 3.079176e-008  2.9361e+000  2.9361e+000  2.9340e+000
 3.079616e-008  2.9357e+000  2.9357e+000  2.9340e+000
 3.080250e-008  2.9352e+000  2.9352e+000  2.9340e+000
 3.080958e-008  2.9348e+000  2.9348e+000  2.9339e+000
 3.081519e-008  2.9346e+000  2.9346e+000  2.9339e+000
 3.082009e-008  2.9344e+000  2.9344e+000  2.9339e+000
 3.082473e-008  2.9343e+000  2.9343e+000  2.9339e+000
 3.082950e-008  2.9342e+000  2.9342e+000  2.9339e+000
 3.083380e-008  2.9342e+000  2.9342e+000  2.9339e+000
 3.083875e-008  2.9341e+000  2.9341e+000  2.9339e+000
 3.084311e-008  2.9340e+000  2.9340e+000  2.9339e+000
 3.084669e-008  2.9340e+000  2.9340e+000  2.9339e+000
 3.085031e-008  2.9340e+000  2.9340e+000  2.9339e+000
 3.085434e-008  2.9340e+000  2.9340e+000  2.9339e+000
 3.085921e-008  2.9339e+000  2.9339e+000  2.9339e+000
 3.086411e-008  2.9339e+000  2.9339e+000  2.9338e+000
 3.086911e-008  2.9339e+000  2.9339e+000  2.9338e+000
 3.087325e-008  2.9339e+000  2.9339e+000  2.9338e+000
 3.087732e-008  2.9339e+000  2.9339e+000  2.9338e+000
 3.088272e-008  2.9339e+000  2.9339e+000  2.9338e+000
 3.088989e-008  2.9339e+000  2.9339e+000  2.9338e+000
 3.089850e-008  2.9338e+000  2.9338e+000  2.9338e+000
 3.090531e-008  2.9338e+000  2.9338e+000  2.9338e+000
 3.091029e-008  2.9338e+000  2.9338e+000  2.9338e+000
 3.091418e-008  2.9338e+000  2.9338e+000  2.9338e+000
 3.091842e-008  2.9338e+000  2.9338e+000  2.9338e+000
 3.092284e-008  2.9338e+000  2.9338e+000  2.9338e+000
