* T-Spice 13.00 Simulation	Tue Apr 24 20:18:53 2012	C:\Documents and Settings\Dhiraj\Desktop\VLSI Designs\CMOS_Inverter\CMOS_Inverter.sp
* Command line: tspice -o "C:\Documents and Settings\Dhiraj\Desktop\VLSI Designs\CMOS_Inverter\CMOS_Inverter.out" "C:\Documents and Settings\Dhiraj\Desktop\VLSI Designs\CMOS_Inverter\CMOS_Inverter.sp" 
* T-Spice Win32 13.00.20080321.01:01:33
* Warning : "Generic_025_SPICE_Models_Level1.lib" line 0 Parentheses mismatch

* Warning : Node N_1 is attached to only one device (MNMOS_1)
* Warning : Node N_2 is attached to only one device (MPMOS_1)

*SEDIT: Alter blocks = 0

* Accuracy and Convergence options:
* numndset|dchold = 100
* 
* Timestep and Integration options:
*  relq|relchgtol = 0.0005
* 
* Model Evaluation options:
*            dcap = 2                    defnrb = 0 [sq]               defnrd = 0 [sq]
*          defnrs = 0 [sq]                 tnom = 25 [deg C]
* 
* General options:
*            temp = 25 [deg C]          threads = 2
* 
* Output options:
*           acout = 1                    ingold = 0
* 


*  Device and node counts:
*             MOSFETs - 2                 MOSFET geometries - 4       
*                BJTs - 0                             JFETs - 0       
*             MESFETs - 0                            Diodes - 0       
*          Capacitors - 0                         Resistors - 0       
*           Inductors - 0                  Mutual inductors - 0       
*  Transmission lines - 0        Coupled transmission lines - 0       
*     Voltage sources - 2                   Current sources - 0       
*                VCVS - 0                              VCCS - 0       
*                CCVS - 0                              CCCS - 0       
*    V-control switch - 0                  I-control switch - 0       
*       Macro devices - 0        External C model instances - 0       
*         HDL devices - 0       
*         Subcircuits - 0              Subcircuit instances - 0       
*   Independent nodes - 3                    Boundary nodes - 3       
*         Total nodes - 6       

* *** 3 WARNING MESSAGES GENERATED DURING SETUP


*SEDIT: Alter=0
*SEDIT: Analysis types DCOP 0 ACMODEL 0 AC 0 TRANSIENT 1 TRANSFER 0 NOISE 0 

*WEDIT: .tran   1e-009   1e-007
TRANSIENT ANALYSIS
Time<s>          v(Vin)<V>   v(Vout)<V>
 0.000000e+000  5.0000e+000  1.2001e-009
 6.250000e-011  5.0000e+000  1.2001e-009
 6.875000e-010  5.0000e+000  1.2001e-009
 2.687500e-009  5.0000e+000  1.2001e-009
 4.687499e-009  5.0000e+000  1.2001e-009
 6.687499e-009  5.0000e+000  1.2001e-009
 8.687499e-009  5.0000e+000  1.2001e-009
 1.000000e-008  5.0000e+000  1.2001e-009
 1.001286e-008  4.9357e+000 -1.5430e-003
 1.010286e-008  4.4857e+000 -1.6935e-003
 1.014786e-008  4.2607e+000  1.9259e-003
 1.017036e-008  4.1482e+000  6.1215e-003
 1.021068e-008  3.9466e+000  1.8233e-002
 1.026466e-008  3.6767e+000  4.5399e-002
 1.032710e-008  3.3645e+000  9.6938e-002
 1.039897e-008  3.0051e+000  1.9425e-001
 1.048413e-008  2.5793e+000  3.9910e-001
 1.058623e-008  2.0688e+000  1.0380e+000
 1.059201e-008  2.0399e+000  1.1116e+000
 1.060482e-008  1.9759e+000  1.3947e+000
 1.061930e-008  1.9035e+000  2.2214e+000
 1.063377e-008  1.8311e+000  3.1786e+000
 1.064703e-008  1.7648e+000  3.5612e+000
 1.066738e-008  1.6631e+000  3.8625e+000
 1.070402e-008  1.4799e+000  4.2771e+000
 1.075953e-008  1.2023e+000  4.6425e+000
 1.082399e-008  8.8004e-001  4.8894e+000
 1.085622e-008  7.1890e-001  4.9471e+000
 1.087233e-008  6.3833e-001  4.9728e+000
 1.090645e-008  4.6772e-001  4.9907e+000
 1.095610e-008  2.1946e-001  4.9959e+000
 1.100000e-008  0.0000e+000  4.9929e+000
 1.105631e-008  0.0000e+000  4.9997e+000
 1.108447e-008  0.0000e+000  4.9999e+000
 1.136603e-008  0.0000e+000  5.0000e+000
 1.248597e-008  0.0000e+000  5.0000e+000
 1.448597e-008  0.0000e+000  5.0000e+000
 1.648597e-008  0.0000e+000  5.0000e+000
 1.848597e-008  0.0000e+000  5.0000e+000
 2.000000e-008  0.0000e+000  5.0000e+000
 2.025000e-008  1.2500e+000  4.6149e+000
 2.034000e-008  1.7000e+000  3.8125e+000
 2.044710e-008  2.2355e+000  7.6553e-001
 2.046433e-008  2.3217e+000  5.7874e-001
 2.048829e-008  2.4415e+000  5.1821e-001
 2.054269e-008  2.7135e+000  2.9518e-001
 2.061192e-008  3.0596e+000  1.8542e-001
 2.070139e-008  3.5070e+000  5.6906e-002
 2.079509e-008  3.9755e+000  2.6428e-002
 2.087920e-008  4.3960e+000 -6.3681e-003
 2.096331e-008  4.8166e+000  9.1065e-003
 2.100000e-008  5.0000e+000 -5.3636e-003
 2.105148e-008  5.0000e+000 -3.2286e-005
 2.156628e-008  5.0000e+000 -1.7916e-008
 2.356628e-008  5.0000e+000  2.0578e-008
 2.556628e-008  5.0000e+000 -1.6978e-008
 2.756628e-008  5.0000e+000  2.0555e-008
 2.956628e-008  5.0000e+000 -1.6954e-008
 3.000000e-008  5.0000e+000  2.0489e-008
 3.025000e-008  3.7500e+000  3.1437e-002
 3.034000e-008  3.3000e+000  1.0163e-001
 3.044709e-008  2.7645e+000  2.7718e-001
 3.055712e-008  2.2144e+000  7.2042e-001
 3.065646e-008  1.7177e+000  3.5979e+000
 3.071231e-008  1.4384e+000  4.3820e+000
 3.077872e-008  1.1064e+000  4.6962e+000
 3.084822e-008  7.5887e-001  4.9671e+000
 3.091908e-008  4.0455e-001  4.9692e+000
 3.099064e-008  4.6786e-002  5.0177e+000
 3.100000e-008  0.0000e+000  4.9805e+000
 3.102600e-008  0.0000e+000  4.9993e+000
 3.128601e-008  0.0000e+000  5.0000e+000
 3.328601e-008  0.0000e+000  5.0000e+000
 3.528601e-008  0.0000e+000  5.0000e+000
 3.728601e-008  0.0000e+000  5.0000e+000
 3.928601e-008  0.0000e+000  5.0000e+000
 4.000000e-008  0.0000e+000  5.0000e+000
 4.025000e-008  1.2500e+000  4.6148e+000
 4.034000e-008  1.7000e+000  3.8124e+000
 4.044710e-008  2.2355e+000  7.6540e-001
 4.046433e-008  2.3217e+000  5.7863e-001
 4.048829e-008  2.4415e+000  5.1812e-001
 4.054269e-008  2.7135e+000  2.9512e-001
 4.061193e-008  3.0597e+000  1.8537e-001
 4.070140e-008  3.5070e+000  5.6878e-002
 4.079510e-008  3.9755e+000  2.6418e-002
 4.087920e-008  4.3960e+000 -6.3693e-003
 4.096331e-008  4.8166e+000  9.1067e-003
 4.100000e-008  5.0000e+000 -5.3638e-003
 4.105148e-008  5.0000e+000 -3.2286e-005
 4.156631e-008  5.0000e+000 -1.7913e-008
 4.356631e-008  5.0000e+000  2.0579e-008
 4.556631e-008  5.0000e+000 -1.6975e-008
 4.756631e-008  5.0000e+000  2.0556e-008
 4.956631e-008  5.0000e+000 -1.6951e-008
 5.000000e-008  5.0000e+000  2.0490e-008
 5.025000e-008  5.0000e+000  1.8198e-009
 5.225000e-008  5.0000e+000  1.8198e-009
 5.425000e-008  5.0000e+000  1.8198e-009
 5.625000e-008  5.0000e+000  1.8198e-009
 5.825000e-008  5.0000e+000  1.8198e-009
 6.000000e-008  5.0000e+000  1.7733e-009
 6.025000e-008  3.7500e+000  3.1425e-002
 6.034000e-008  3.3000e+000  1.0160e-001
 6.044708e-008  2.7646e+000  2.7711e-001
 6.055711e-008  2.2144e+000  7.2019e-001
 6.065645e-008  1.7177e+000  3.5977e+000
 6.071231e-008  1.4384e+000  4.3819e+000
 6.077872e-008  1.1064e+000  4.6962e+000
 6.084822e-008  7.5887e-001  4.9670e+000
 6.091908e-008  4.0455e-001  4.9692e+000
 6.099064e-008  4.6788e-002  5.0177e+000
 6.100000e-008  8.8818e-015  4.9806e+000
 6.102600e-008  0.0000e+000  4.9993e+000
 6.128601e-008  0.0000e+000  5.0000e+000
 6.328601e-008  0.0000e+000  5.0000e+000
 6.528601e-008  0.0000e+000  5.0000e+000
 6.728601e-008  0.0000e+000  5.0000e+000
 6.928601e-008  0.0000e+000  5.0000e+000
 7.000000e-008  0.0000e+000  5.0000e+000
 7.025000e-008  1.2500e+000  4.6148e+000
 7.034000e-008  1.7000e+000  3.8123e+000
 7.044710e-008  2.2355e+000  7.6532e-001
 7.046433e-008  2.3217e+000  5.7857e-001
 7.048829e-008  2.4415e+000  5.1807e-001
 7.054269e-008  2.7135e+000  2.9508e-001
 7.061193e-008  3.0597e+000  1.8534e-001
 7.070141e-008  3.5071e+000  5.6862e-002
 7.079510e-008  3.9755e+000  2.6413e-002
 7.087920e-008  4.3960e+000 -6.3698e-003
 7.096330e-008  4.8165e+000  9.1069e-003
 7.100000e-008  5.0000e+000 -5.3640e-003
 7.105148e-008  5.0000e+000 -3.2283e-005
 7.156637e-008  5.0000e+000 -1.7908e-008
 7.356637e-008  5.0000e+000  2.0577e-008
 7.556637e-008  5.0000e+000 -1.6970e-008
 7.756637e-008  5.0000e+000  2.0554e-008
 7.956637e-008  5.0000e+000 -1.6946e-008
 8.000000e-008  5.0000e+000  2.0488e-008
 8.025000e-008  3.7500e+000  3.1418e-002
 8.034000e-008  3.3000e+000  1.0159e-001
 8.044707e-008  2.7646e+000  2.7707e-001
 8.055709e-008  2.2145e+000  7.2001e-001
 8.065645e-008  1.7177e+000  3.5975e+000
 8.071231e-008  1.4384e+000  4.3818e+000
 8.077871e-008  1.1064e+000  4.6962e+000
 8.084821e-008  7.5890e-001  4.9670e+000
 8.091908e-008  4.0458e-001  4.9693e+000
 8.099063e-008  4.6819e-002  5.0177e+000
 8.100000e-008  0.0000e+000  4.9806e+000
 8.102601e-008  0.0000e+000  4.9993e+000
 8.128611e-008  0.0000e+000  5.0000e+000
 8.328611e-008  0.0000e+000  5.0000e+000
 8.528611e-008  0.0000e+000  5.0000e+000
 8.728611e-008  0.0000e+000  5.0000e+000
 8.928611e-008  0.0000e+000  5.0000e+000
 9.000000e-008  3.3087e-014  5.0000e+000
 9.025000e-008  1.2500e+000  4.6148e+000
 9.034000e-008  1.7000e+000  3.8122e+000
 9.044710e-008  2.2355e+000  7.6526e-001
 9.046433e-008  2.3217e+000  5.7853e-001
 9.048829e-008  2.4415e+000  5.1803e-001
 9.054269e-008  2.7135e+000  2.9505e-001
 9.061194e-008  3.0597e+000  1.8532e-001
 9.070141e-008  3.5071e+000  5.6851e-002
 9.079510e-008  3.9755e+000  2.6410e-002
 9.087920e-008  4.3960e+000 -6.3701e-003
 9.096329e-008  4.8165e+000  9.1071e-003
 9.100000e-008  5.0000e+000 -5.3641e-003
 9.105149e-008  5.0000e+000 -3.2279e-005
 9.156645e-008  5.0000e+000 -1.7901e-008
 9.356645e-008  5.0000e+000  2.0573e-008
 9.556645e-008  5.0000e+000 -1.6964e-008
 9.756645e-008  5.0000e+000  2.0550e-008
 9.956645e-008  5.0000e+000 -1.6941e-008
 1.000000e-007  5.0000e+000  2.0484e-008
*

* Parsing                      0.24 seconds
* Setup                        1.08 seconds
* DC operating point           0.08 seconds
* Transient Analysis           0.03 seconds
* Overhead                     4.62 seconds
* -----------------------------------------
* Total                        6.05 seconds

* Simulation completed	with  3 Warnings

* End of T-Spice output file
