* T-Spice 13.00 Simulation	Mon Apr 23 19:51:10 2012	C:\Documents and Settings\Dhiraj\Desktop\VLSI Designs\XNOR_Gate\XNOR_Gate.sp
* Command line: tspice -o "C:\Documents and Settings\Dhiraj\Desktop\VLSI Designs\XNOR_Gate\XNOR_Gate.out" "C:\Documents and Settings\Dhiraj\Desktop\VLSI Designs\XNOR_Gate\XNOR_Gate.sp" 
* T-Spice Win32 13.00.20080321.01:01:33

*SEDIT: Alter blocks = 0

* Accuracy and Convergence options:
* numndset|dchold = 100
* 
* Timestep and Integration options:
*  relq|relchgtol = 0.0005
* 
* Model Evaluation options:
*            dcap = 2                    defnrb = 0 [sq]               defnrd = 0 [sq]
*          defnrs = 0 [sq]                 tnom = 25 [deg C]
* 
* General options:
*            temp = 25 [deg C]          threads = 2
* 
* Output options:
*           acout = 1                    ingold = 0
* 


*  Device and node counts:
*             MOSFETs - 6                 MOSFET geometries - 2       
*                BJTs - 0                             JFETs - 0       
*             MESFETs - 0                            Diodes - 0       
*          Capacitors - 0                         Resistors - 3       
*           Inductors - 0                  Mutual inductors - 0       
*  Transmission lines - 0        Coupled transmission lines - 0       
*     Voltage sources - 3                   Current sources - 0       
*                VCVS - 0                              VCCS - 0       
*                CCVS - 0                              CCCS - 0       
*    V-control switch - 0                  I-control switch - 0       
*       Macro devices - 0        External C model instances - 0       
*         HDL devices - 0       
*         Subcircuits - 0              Subcircuit instances - 0       
*   Independent nodes - 5                    Boundary nodes - 4       
*         Total nodes - 9       


*SEDIT: Alter=0
*SEDIT: Analysis types DCOP 0 ACMODEL 0 AC 0 TRANSIENT 1 TRANSFER 0 NOISE 0 

*WEDIT: .tran   1e-009   1e-007
TRANSIENT ANALYSIS
Time<s>         v(Vin1)<V>   v(Vin2)<V>   v(Vout)<V>
 0.000000e+000  0.0000e+000  0.0000e+000  5.0000e+000
 6.250000e-011  0.0000e+000  0.0000e+000  5.0000e+000
 6.875000e-010  0.0000e+000  0.0000e+000  5.0000e+000
 1.000000e-009  0.0000e+000  0.0000e+000  5.0000e+000
 1.250000e-009  0.0000e+000  0.0000e+000  5.0000e+000
 3.250000e-009  0.0000e+000  0.0000e+000  5.0000e+000
 5.250000e-009  0.0000e+000  0.0000e+000  5.0000e+000
 7.250000e-009  0.0000e+000  0.0000e+000  5.0000e+000
 9.250000e-009  0.0000e+000  0.0000e+000  5.0000e+000
 1.000000e-008  0.0000e+000  0.0000e+000  5.0000e+000
 1.025000e-008  0.0000e+000  1.2500e+000  4.6016e+000
 1.037500e-008  0.0000e+000  1.8750e+000  3.8632e+000
 1.049312e-008  0.0000e+000  2.4656e+000  2.9065e+000
 1.057173e-008  0.0000e+000  2.8587e+000  2.5119e+000
 1.064919e-008  0.0000e+000  3.2460e+000  2.3063e+000
 1.074051e-008  0.0000e+000  3.7026e+000  2.1238e+000
 1.085837e-008  0.0000e+000  4.2919e+000  1.9738e+000
 1.100000e-008  0.0000e+000  5.0000e+000  1.8342e+000
 1.118924e-008  0.0000e+000  5.0000e+000  1.8358e+000
 1.308171e-008  0.0000e+000  5.0000e+000  1.8358e+000
 1.508171e-008  0.0000e+000  5.0000e+000  1.8358e+000
 1.708171e-008  0.0000e+000  5.0000e+000  1.8358e+000
 1.908171e-008  0.0000e+000  5.0000e+000  1.8358e+000
 2.000000e-008  0.0000e+000  5.0000e+000  1.8358e+000
 2.001443e-008  7.2175e-002  4.9278e+000  1.8458e+000
 2.010443e-008  5.2217e-001  4.4778e+000  1.9297e+000
 2.010987e-008  5.4939e-001  4.4506e+000  1.9353e+000
 2.012970e-008  6.4854e-001  4.3515e+000  1.9604e+000
 2.015411e-008  7.7056e-001  4.2294e+000  1.9954e+000
 2.016669e-008  8.3349e-001  4.1665e+000  1.9789e+000
 2.017967e-008  8.9836e-001  4.1016e+000  1.9833e+000
 2.021028e-008  1.0514e+000  3.9486e+000  2.0225e+000
 2.025732e-008  1.2866e+000  3.7134e+000  2.0883e+000
 2.031561e-008  1.5781e+000  3.4219e+000  2.2057e+000
 2.038382e-008  1.9191e+000  3.0809e+000  2.3647e+000
 2.046519e-008  2.3260e+000  2.6740e+000  2.5592e+000
 2.055170e-008  2.7585e+000  2.2415e+000  2.5463e+000
 2.062909e-008  3.1455e+000  1.8545e+000  2.3607e+000
 2.071536e-008  3.5768e+000  1.4232e+000  2.1531e+000
 2.080532e-008  4.0266e+000  9.7337e-001  2.0100e+000
 2.088594e-008  4.4297e+000  5.7028e-001  1.9328e+000
 2.096226e-008  4.8113e+000  1.8868e-001  1.8693e+000
 2.100000e-008  5.0000e+000  0.0000e+000  1.8356e+000
 2.101886e-008  5.0000e+000  0.0000e+000  1.8355e+000
 2.120755e-008  5.0000e+000  0.0000e+000  1.8357e+000
 2.309438e-008  5.0000e+000  0.0000e+000  1.8358e+000
 2.509438e-008  5.0000e+000  0.0000e+000  1.8358e+000
 2.709438e-008  5.0000e+000  0.0000e+000  1.8358e+000
 2.909438e-008  5.0000e+000  0.0000e+000  1.8358e+000
 3.000000e-008  5.0000e+000  0.0000e+000  1.8358e+000
 3.001463e-008  5.0000e+000  7.3158e-002  1.8354e+000
 3.010463e-008  5.0000e+000  5.2316e-001  1.8361e+000
 3.014963e-008  5.0000e+000  7.4816e-001  1.8279e+000
 3.020570e-008  5.0000e+000  1.0285e+000  1.8391e+000
 3.026935e-008  5.0000e+000  1.3468e+000  1.8953e+000
 3.033716e-008  5.0000e+000  1.6858e+000  2.0054e+000
 3.041320e-008  5.0000e+000  2.0660e+000  2.2503e+000
 3.050233e-008  5.0000e+000  2.5117e+000  3.0174e+000
 3.059123e-008  5.0000e+000  2.9562e+000  3.8593e+000
 3.066950e-008  5.0000e+000  3.3475e+000  4.1729e+000
 3.076514e-008  5.0000e+000  3.8257e+000  4.3650e+000
 3.088971e-008  5.0000e+000  4.4486e+000  4.5164e+000
 3.100000e-008  5.0000e+000  5.0000e+000  4.5900e+000
 3.116700e-008  5.0000e+000  5.0000e+000  4.5939e+000
 3.283701e-008  5.0000e+000  5.0000e+000  4.5939e+000
 3.483701e-008  5.0000e+000  5.0000e+000  4.5939e+000
 3.683701e-008  5.0000e+000  5.0000e+000  4.5939e+000
 3.883701e-008  5.0000e+000  5.0000e+000  4.5939e+000
 4.000000e-008  5.0000e+000  5.0000e+000  4.5939e+000
 4.025000e-008  3.7500e+000  3.7500e+000  4.1567e+000
 4.054957e-008  2.2521e+000  2.2521e+000  2.3538e+000
 4.068610e-008  1.5695e+000  1.5695e+000  3.5007e+000
 4.075437e-008  1.2281e+000  1.2281e+000  4.2276e+000
 4.082600e-008  8.6998e-001  8.6998e-001  4.6914e+000
 4.089794e-008  5.1028e-001  5.1028e-001  4.9724e+000
 4.097003e-008  1.4981e-001  1.4981e-001  4.9865e+000
 4.100000e-008  0.0000e+000  0.0000e+000  4.9979e+000
 4.104652e-008  0.0000e+000  0.0000e+000  4.9980e+000
 4.151179e-008  0.0000e+000  0.0000e+000  4.9998e+000
 4.351179e-008  0.0000e+000  0.0000e+000  5.0000e+000
 4.551179e-008  0.0000e+000  0.0000e+000  5.0000e+000
 4.751179e-008  0.0000e+000  0.0000e+000  5.0000e+000
 4.951179e-008  0.0000e+000  0.0000e+000  5.0000e+000
 5.000000e-008  0.0000e+000  8.2718e-015  5.0000e+000
 5.025000e-008  0.0000e+000  1.2500e+000  4.6019e+000
 5.037500e-008  0.0000e+000  1.8750e+000  3.8632e+000
 5.049312e-008  0.0000e+000  2.4656e+000  2.9065e+000
 5.057173e-008  0.0000e+000  2.8587e+000  2.5119e+000
 5.064919e-008  0.0000e+000  3.2460e+000  2.3063e+000
 5.074051e-008  0.0000e+000  3.7026e+000  2.1238e+000
 5.085836e-008  0.0000e+000  4.2918e+000  1.9738e+000
 5.100000e-008  0.0000e+000  5.0000e+000  1.8342e+000
 5.118924e-008  0.0000e+000  5.0000e+000  1.8358e+000
 5.308172e-008  0.0000e+000  5.0000e+000  1.8358e+000
 5.508172e-008  0.0000e+000  5.0000e+000  1.8358e+000
 5.708172e-008  0.0000e+000  5.0000e+000  1.8358e+000
 5.908172e-008  0.0000e+000  5.0000e+000  1.8358e+000
 6.000000e-008  1.6544e-014  5.0000e+000  1.8358e+000
 6.001443e-008  7.2174e-002  4.9278e+000  1.8458e+000
 6.010443e-008  5.2217e-001  4.4778e+000  1.9297e+000
 6.0109877e-008  5.4939e-001  4.4506e+000  1.9353e+000
 6.012970e-008  6.4854e-001  4.3515e+000  1.9604e+000
 6.015440e-008  7.7201e-001  4.2280e+000  1.9964e+000
 6.016625e-008  8.3129e-001  4.1687e+000  1.9809e+000
 6.017825e-008  8.9127e-001  4.1087e+000  1.9817e+000
 6.020769e-008  1.0385e+000  3.9615e+000  2.0192e+000
 6.025381e-008  1.2691e+000  3.7309e+000  2.0825e+000
 6.031153e-008  1.5577e+000  3.4423e+000  2.1967e+000
 6.037897e-008  1.8949e+000  3.1051e+000  2.3523e+000
 6.045936e-008  2.2968e+000  2.7032e+000  2.5525e+000
 6.054689e-008  2.7345e+000  2.2655e+000  2.5550e+000
 6.062549e-008  3.1275e+000  1.8725e+000  2.3692e+000
 6.071140e-008  3.5570e+000  1.4430e+000  2.1618e+000
 6.080159e-008  4.0080e+000  9.9201e-001  2.0141e+000
 6.088273e-008  4.4137e+000  5.8634e-001  1.9361e+000
 6.095929e-008  4.7965e+000  2.0353e-001  1.8714e+000
 6.099757e-008  4.9879e+000  1.2124e-002  1.8378e+000
 6.1000000e-008  5.0000e+000  0.0000e+000  1.8373e+000
 6.101323e-008  5.0000e+000  0.0000e+000  1.8355e+000
 6.114559e-008  5.0000e+000  0.0000e+000  1.8357e+000
 6.246918e-008  5.0000e+000  0.0000e+000  1.8358e+000
 6.446918e-008  5.0000e+000  0.0000e+000  1.8358e+000
 6.646918e-008  5.0000e+000  0.0000e+000  1.8358e+000
 6.846918e-008  5.0000e+000  0.0000e+000  1.8358e+000
 7.000000e-008  5.0000e+000  1.6544e-014  1.8358e+000
 7.001463e-008  5.0000e+000  7.3158e-002  1.8354e+000
 7.010463e-008  5.0000e+000  5.2316e-001  1.8360e+000
 7.014963e-008  5.0000e+000  7.4816e-001  1.8279e+000
 7.020578e-008  5.0000e+000  1.0289e+000  1.8392e+000
 7.026947e-008  5.0000e+000  1.3474e+000  1.8954e+000
 7.033731e-008  5.0000e+000  1.6866e+000  2.0058e+000
 7.041338e-008  5.0000e+000  2.0669e+000  2.2512e+000
 7.050255e-008  5.0000e+000  2.5128e+000  3.0199e+000
 7.059143e-008  5.0000e+000  2.9572e+000  3.8605e+000
 7.066972e-008  5.0000e+000  3.3486e+000  4.1734e+000
 7.076543e-008  5.0000e+000  3.8272e+000  4.3655e+000
 7.089007e-008  5.0000e+000  4.4504e+000  4.5167e+000
 7.100000e-008  5.0000e+000  5.0000e+000  4.5901e+000
 7.116672e-008  5.0000e+000  5.0000e+000  4.5939e+000
 7.283398e-008  5.0000e+000  5.0000e+000  4.5939e+000
 7.483398e-008  5.0000e+000  5.0000e+000  4.5939e+000
 7.683398e-008  5.0000e+000  5.0000e+000  4.5939e+000
 7.883398e-008  5.0000e+000  5.0000e+000  4.5939e+000
 8.000000e-008  5.0000e+000  5.0000e+000  4.5939e+000
 8.025000e-008  3.7500e+000  3.7500e+000  4.1567e+000
 8.054957e-008  2.2521e+000  2.2521e+000  2.3538e+000
 8.068610e-008  1.5695e+000  1.5695e+000  3.5007e+000
 8.075437e-008  1.2281e+000  1.2281e+000  4.2276e+000
 8.082600e-008  8.6998e-001  8.6998e-001  4.6914e+000
 8.089794e-008  5.1028e-001  5.1028e-001  4.9724e+000
 8.097003e-008  1.4981e-001  1.4981e-001  4.9865e+000
 8.100000e-008  0.0000e+000  0.0000e+000  4.9979e+000
 8.104652e-008  0.0000e+000  0.0000e+000  4.9980e+000
 8.151179e-008  0.0000e+000  0.0000e+000  4.9998e+000
 8.351179e-008  0.0000e+000  0.0000e+000  5.0000e+000
 8.551179e-008  0.0000e+000  0.0000e+000  5.0000e+000
 8.751179e-008  0.0000e+000  0.0000e+000  5.0000e+000
 8.951179e-008  0.0000e+000  0.0000e+000  5.0000e+000
 9.000000e-008  0.0000e+000  8.2718e-015  5.0000e+000
 9.025000e-008  0.0000e+000  1.2500e+000  4.6019e+000
 9.037500e-008  0.0000e+000  1.8750e+000  3.8632e+000
 9.049312e-008  0.0000e+000  2.4656e+000  2.9065e+000
 9.057173e-008  0.0000e+000  2.8587e+000  2.5119e+000
 9.064919e-008  0.0000e+000  3.2460e+000  2.3063e+000
 9.074051e-008  0.0000e+000  3.7026e+000  2.1238e+000
 9.085836e-008  0.0000e+000  4.2918e+000  1.9738e+000
 9.100000e-008  0.0000e+000  5.0000e+000  1.8342e+000
 9.118924e-008  0.0000e+000  5.0000e+000  1.8358e+000
 9.308172e-008  0.0000e+000  5.0000e+000  1.8358e+000
 9.508172e-008  0.0000e+000  5.0000e+000  1.8358e+000
 9.708172e-008  0.0000e+000  5.0000e+000  1.8358e+000
 9.908172e-008  0.0000e+000  5.0000e+000  1.8358e+000
 1.000000e-007  4.9631e-014  5.0000e+000  1.8358e+000
*

* Parsing                      0.02 seconds
* Setup                        0.02 seconds
* DC operating point           0.00 seconds
* Transient Analysis           0.04 seconds
* Overhead                     1.89 seconds
* -----------------------------------------
* Total                        1.97 seconds

* Simulation completed

* End of T-Spice output file
