* T-Spice 13.00 Simulation	Mon Apr 23 18:12:55 2012	C:\Documents and Settings\Dhiraj\Desktop\VLSI Designs\NOR_Gate\NOR_Gate.sp
* Command line: tspice -o "C:\Documents and Settings\Dhiraj\Desktop\VLSI Designs\NOR_Gate\NOR_Gate.out" "C:\Documents and Settings\Dhiraj\Desktop\VLSI Designs\NOR_Gate\NOR_Gate.sp" 
* T-Spice Win32 13.00.20080321.01:01:33
* Warning : Node N_1 is attached to only one device (MNMOS_1)
* Warning : Node N_2 is attached to only one device (MNMOS_2)

*SEDIT: Alter blocks = 0

* Accuracy and Convergence options:
* numndset|dchold = 100
* 
* Timestep and Integration options:
*  relq|relchgtol = 0.0005
* 
* Model Evaluation options:
*            dcap = 2                    defnrb = 0 [sq]               defnrd = 0 [sq]
*          defnrs = 0 [sq]                 tnom = 25 [deg C]
* 
* General options:
*            temp = 25 [deg C]          threads = 2
* 
* Output options:
*           acout = 1                    ingold = 0
* 


*  Device and node counts:
*             MOSFETs - 2                 MOSFET geometries - 2       
*                BJTs - 0                             JFETs - 0       
*             MESFETs - 0                            Diodes - 0       
*          Capacitors - 0                         Resistors - 1       
*           Inductors - 0                  Mutual inductors - 0       
*  Transmission lines - 0        Coupled transmission lines - 0       
*     Voltage sources - 3                   Current sources - 0       
*                VCVS - 0                              VCCS - 0       
*                CCVS - 0                              CCCS - 0       
*    V-control switch - 0                  I-control switch - 0       
*       Macro devices - 0        External C model instances - 0       
*         HDL devices - 0       
*         Subcircuits - 0              Subcircuit instances - 0       
*   Independent nodes - 3                    Boundary nodes - 4       
*         Total nodes - 7       

* *** 2 WARNING MESSAGES GENERATED DURING SETUP


*SEDIT: Alter=0
*SEDIT: Analysis types DCOP 0 ACMODEL 0 AC 0 TRANSIENT 1 TRANSFER 0 NOISE 0 

*WEDIT: .tran   1e-009   1e-007
TRANSIENT ANALYSIS
Time<s>         v(Vin1)<V>   v(Vin2)<V>   v(Vout)<V>
 0.000000e+000  0.0000e+000  0.0000e+000  5.0000e+000
 6.250000e-011  0.0000e+000  0.0000e+000  5.0000e+000
 6.875000e-010  0.0000e+000  0.0000e+000  5.0000e+000
 1.000000e-009  0.0000e+000  0.0000e+000  5.0000e+000
 1.250000e-009  0.0000e+000  0.0000e+000  5.0000e+000
 3.250000e-009  0.0000e+000  0.0000e+000  5.0000e+000
 5.250000e-009  0.0000e+000  0.0000e+000  5.0000e+000
 7.250000e-009  0.0000e+000  0.0000e+000  5.0000e+000
 9.250000e-009  0.0000e+000  0.0000e+000  5.0000e+000
 1.000000e-008  0.0000e+000  0.0000e+000  5.0000e+000
 1.001357e-008  0.0000e+000  6.7866e-002  5.0222e+000
 1.010357e-008  0.0000e+000  5.1787e-001  4.8317e+000
 1.014857e-008  0.0000e+000  7.4287e-001  4.1630e+000
 1.017107e-008  0.0000e+000  8.5537e-001  3.4303e+000
 1.019804e-008  0.0000e+000  9.9021e-001  2.2878e+000
 1.021662e-008  0.0000e+000  1.0831e+000  1.3683e+000
 1.022636e-008  0.0000e+000  1.1318e+000  8.5501e-001
 1.023554e-008  0.0000e+000  1.1777e+000  4.9701e-001
 1.024475e-008  0.0000e+000  1.2238e+000  3.8235e-001
 1.026110e-008  0.0000e+000  1.3055e+000  3.4313e-001
 1.029547e-008  0.0000e+000  1.4774e+000  2.6929e-001
 1.034615e-008  0.0000e+000  1.7308e+000  2.1519e-001
 1.041275e-008  0.0000e+000  2.0638e+000  1.6732e-001
 1.049613e-008  0.0000e+000  2.4807e+000  1.3480e-001
 1.059840e-008  0.0000e+000  2.9920e+000  1.0674e-001
 1.072281e-008  0.0000e+000  3.6141e+000  8.7231e-002
 1.087360e-008  0.0000e+000  4.3680e+000  6.9969e-002
 1.100000e-008  0.0000e+000  5.0000e+000  6.1187e-002
 1.117877e-008  0.0000e+000  5.0000e+000  6.0002e-002
 1.126816e-008  0.0000e+000  5.0000e+000  6.0003e-002
 1.216204e-008  0.0000e+000  5.0000e+000  6.0032e-002
 1.396888e-008  0.0000e+000  5.0000e+000  6.0036e-002
 1.596888e-008  0.0000e+000  5.0000e+000  6.0038e-002
 1.796888e-008  0.0000e+000  5.0000e+000  6.0040e-002
 1.996888e-008  0.0000e+000  5.0000e+000  6.0042e-002
 2.000000e-008  0.0000e+000  5.0000e+000  6.0042e-002
 2.001359e-008  6.7987e-002  4.9320e+000  6.0937e-002
 2.010359e-008  5.1797e-001  4.4820e+000  6.5754e-002
 2.014859e-008  7.4297e-001  4.2570e+000  6.5898e-002
 2.017109e-008  8.5546e-001  4.1445e+000  6.5873e-002
 2.021141e-008  1.0571e+000  3.9429e+000  6.5960e-002
 2.023157e-008  1.1579e+000  3.8421e+000  6.5950e-002
 2.026973e-008  1.3487e+000  3.6513e+000  6.6017e-002
 2.032224e-008  1.6112e+000  3.3888e+000  6.6041e-002
 2.038383e-008  1.9192e+000  3.0808e+000  6.6120e-002
 2.045443e-008  2.2722e+000  2.7278e+000  6.6152e-002
 2.053794e-008  2.6897e+000  2.3103e+000  6.6237e-002
 2.063800e-008  3.1900e+000  1.8100e+000  6.6281e-002
 2.074612e-008  3.7306e+000  1.2694e+000  6.6372e-002
 2.085425e-008  4.2713e+000  7.2873e-001  6.6411e-002
 2.096237e-008  4.8119e+000  1.8811e-001  6.2595e-002
 2.100000e-008  5.0000e+000  0.0000e+000  6.0050e-002
 2.105213e-008  5.0000e+000  0.0000e+000  5.9999e-002
 2.107820e-008  5.0000e+000  0.0000e+000  5.9999e-002
 2.133888e-008  5.0000e+000  0.0000e+000  6.0018e-002
 2.192620e-008  5.0000e+000  0.0000e+000  6.0023e-002
 2.392620e-008  5.0000e+000  0.0000e+000  6.0031e-002
 2.592620e-008  5.0000e+000  0.0000e+000  6.0035e-002
 2.792620e-008  5.0000e+000  0.0000e+000  6.0038e-002
 2.992620e-008  5.0000e+000  0.0000e+000  6.0040e-002
 3.000000e-008  5.0000e+000  0.0000e+000  6.0040e-002
 3.025000e-008  5.0000e+000  1.2500e+000  5.1759e-002
 3.050000e-008  5.0000e+000  2.5000e+000  4.2040e-002
 3.064936e-008  5.0000e+000  3.2468e+000  3.7828e-002
 3.074641e-008  5.0000e+000  3.7321e+000  3.5474e-002
 3.084346e-008  5.0000e+000  4.2173e+000  3.3437e-002
 3.094050e-008  5.0000e+000  4.7025e+000  3.1569e-002
 3.100000e-008  5.0000e+000  5.0000e+000  3.0551e-002
 3.106557e-008  5.0000e+000  5.0000e+000  3.0151e-002
 3.172127e-008  5.0000e+000  5.0000e+000  3.0150e-002
 3.372127e-008  5.0000e+000  5.0000e+000  3.0151e-002
 3.572127e-008  5.0000e+000  5.0000e+000  3.0152e-002
 3.772127e-008  5.0000e+000  5.0000e+000  3.0152e-002
 3.972127e-008  5.0000e+000  5.0000e+000  3.0153e-002
 4.000000e-008  5.0000e+000  5.0000e+000  3.0153e-002
 4.025000e-008  3.7500e+000  3.7500e+000  4.0507e-002
 4.034000e-008  3.3000e+000  3.3000e+000  4.6854e-002
 4.043000e-008  2.8500e+000  2.8500e+000  5.5608e-002
 4.052166e-008  2.3917e+000  2.3917e+000  6.8671e-002
 4.062501e-008  1.8749e+000  1.8749e+000  9.3772e-002
 4.073682e-008  1.3159e+000  1.3159e+000  1.5828e-001
 4.083979e-008  8.0103e-001  8.0103e-001  1.4149e+000
 4.089500e-008  5.2499e-001  5.2499e-001  3.3916e+000
 4.094383e-008  2.8082e-001  2.8082e-001  4.7139e+000
 4.099267e-008  3.6649e-002  3.6649e-002  4.8675e+000
 4.100000e-008  0.0000e+000  0.0000e+000  4.8685e+000
 4.102301e-008  0.0000e+000  0.0000e+000  4.9306e+000
 4.125313e-008  0.0000e+000  0.0000e+000  4.9930e+000
 4.325313e-008  0.0000e+000  0.0000e+000  5.0066e+000
 4.525313e-008  0.0000e+000  0.0000e+000  4.9937e+000
 4.725313e-008  0.0000e+000  0.0000e+000  5.0060e+000
 4.925313e-008  0.0000e+000  0.0000e+000  4.9943e+000
 5.000000e-008  0.0000e+000  8.2718e-015  5.0049e+000
 5.025000e-008  0.0000e+000  1.2500e+000  4.5615e-001
 5.037500e-008  0.0000e+000  1.8750e+000  1.9979e-001
 5.049312e-008  0.0000e+000  2.4656e+000  1.3701e-001
 5.061449e-008  0.0000e+000  3.0725e+000  1.0640e-001
 5.072448e-008  0.0000e+000  3.6224e+000  8.6749e-002
 5.082448e-008  0.0000e+000  4.1224e+000  7.5933e-002
 5.092448e-008  0.0000e+000  4.6224e+000  6.5967e-002
 5.100000e-008  0.0000e+000  5.0000e+000  6.1223e-002
 5.107551e-008  0.0000e+000  5.0000e+000  6.0052e-002
 5.183066e-008  0.0000e+000  5.0000e+000  6.0048e-002
 5.383066e-008  0.0000e+000  5.0000e+000  6.0036e-002
 5.583066e-008  0.0000e+000  5.0000e+000  6.0062e-002
 5.783066e-008  0.0000e+000  5.0000e+000  6.0038e-002
 5.983066e-008  0.0000e+000  5.0000e+000  6.0063e-002
 6.000000e-008  1.6544e-014  5.0000e+000  6.0065e-002
 6.025000e-008  1.2500e+000  3.7500e+000  6.6794e-002
 6.034000e-008  1.7000e+000  3.3000e+000  6.6843e-002
 6.043000e-008  2.1500e+000  2.8500e+000  6.6892e-002
 6.052190e-008  2.6095e+000  2.3905e+000  6.6812e-002
 6.062564e-008  3.1282e+000  1.8718e+000  6.6883e-002
 6.073026e-008  3.6513e+000  1.3487e+000  6.6770e-002
 6.082778e-008  4.1389e+000  8.6107e-001  6.6798e-002
 6.092530e-008  4.6265e+000  3.7345e-001  6.5423e-002
 6.100000e-008  5.0000e+000  0.0000e+000  6.0117e-002
 6.107469e-008  5.0000e+000  0.0000e+000  6.0048e-002
 6.182159e-008  5.0000e+000  0.0000e+000  6.0048e-002
 6.382159e-008  5.0000e+000  0.0000e+000  6.0048e-002
 6.582159e-008  5.0000e+000  0.0000e+000  6.0050e-002
 6.782159e-008  5.0000e+000  0.0000e+000  6.0049e-002
 6.982159e-008  5.0000e+000  0.0000e+000  6.0048e-002
 7.000000e-008  5.0000e+000  1.6544e-014  6.0053e-002
 7.025000e-008  5.0000e+000  1.2500e+000  5.1768e-002
 7.050000e-008  5.0000e+000  2.5000e+000  4.2046e-002
 7.065086e-008  5.0000e+000  3.2543e+000  3.7795e-002
 7.074905e-008  5.0000e+000  3.7453e+000  3.5420e-002
 7.084725e-008  5.0000e+000  4.2363e+000  3.3366e-002
 7.094545e-008  5.0000e+000  4.7273e+000  3.1485e-002
 7.100000e-008  5.0000e+000  5.0000e+000  3.0556e-002
 7.106277e-008  5.0000e+000  5.0000e+000  3.0155e-002
 7.169055e-008  5.0000e+000  5.0000e+000  3.0154e-002
 7.369055e-008  5.0000e+000  5.0000e+000  3.0152e-002
 7.569055e-008  5.0000e+000  5.0000e+000  3.0158e-002
 7.769055e-008  5.0000e+000  5.0000e+000  3.0152e-002
 7.969055e-008  5.0000e+000  5.0000e+000  3.0159e-002
 8.000000e-008  5.0000e+000  5.0000e+000  3.0160e-002
 8.025000e-008  3.7500e+000  3.7500e+000  4.0510e-002
 8.034000e-008  3.3000e+000  3.3000e+000  4.6857e-002
 8.043000e-008  2.8500e+000  2.8500e+000  5.5612e-002
 8.052209e-008  2.3895e+000  2.3895e+000  6.8752e-002
 8.062612e-008  1.8694e+000  1.8694e+000  9.4151e-002
 8.073824e-008  1.3088e+000  1.3088e+000  1.5976e-001
 8.084120e-008  7.9396e-001  7.9396e-001  1.4805e+000
 8.089602e-008  5.1987e-001  5.1987e-001  3.4447e+000
 8.094733e-008  2.6331e-001  2.6331e-001  4.7589e+000
 8.099864e-008  6.7519e-003  6.7519e-003  4.8715e+000
 8.0999999e-008  0.0000e+000  0.0000e+000  4.8715e+000
 8.100987e-008  0.0000e+000  0.0000e+000  4.9072e+000
 8.110865e-008  0.0000e+000  0.0000e+000  4.9808e+000
 8.209639e-008  0.0000e+000  0.0000e+000  5.0173e+000
 8.409639e-008  0.0000e+000  0.0000e+000  4.9836e+000
 8.609639e-008  0.0000e+000  0.0000e+000  5.0156e+000
 8.809639e-008  0.0000e+000  0.0000e+000  4.9852e+000
 9.000000e-008  0.0000e+000  8.2718e-015  5.0140e+000
 9.025000e-008  0.0000e+000  1.2500e+000  4.5638e-001
 9.037500e-008  0.0000e+000  1.8750e+000  1.9981e-001
 9.049312e-008  0.0000e+000  2.4656e+000  1.3702e-001
 9.061449e-008  0.0000e+000  3.0725e+000  1.0641e-001
 9.072522e-008  0.0000e+000  3.6261e+000  8.6652e-002
 9.082073e-008  0.0000e+000  4.1037e+000  7.6329e-002
 9.091623e-008  0.0000e+000  4.5812e+000  6.6634e-002
 9.100000e-008  0.0000e+000  5.0000e+000  6.1229e-002
 9.108376e-008  0.0000e+000  5.0000e+000  6.0058e-002
 9.192137e-008  0.0000e+000  5.0000e+000  6.0054e-002
 9.392137e-008  0.0000e+000  5.0000e+000  6.0044e-002
 9.592137e-008  0.0000e+000  5.0000e+000  6.0034e-002
 9.792137e-008  0.0000e+000  5.0000e+000  6.0075e-002
 9.992137e-008  0.0000e+000  5.0000e+000  6.0035e-002
 1.000000e-007  4.9631e-014  5.0000e+000  6.0033e-002
*

* Parsing                      0.00 seconds
* Setup                        0.02 seconds
* DC operating point           0.01 seconds
* Transient Analysis           0.02 seconds
* Overhead                     2.11 seconds
* -----------------------------------------
* Total                        2.15 seconds

* Simulation completed	with  2 Warnings

* End of T-Spice output file
